Highest level modules:
can_testbench
  Begin compiled design load:
  Begin simulation:


(40000) Writing register [6] with 0x43
(112400) Writing register [7] with 0x2f
(224900) Writing register [4] with 0xe8
(262400) Writing register [5] with 0xf
(6546900) Writing register [0] with 0x0


(241221900)
(241262400) Reading register [20] = 0xx
(241299900) Reading register [21] = 0xx
(241337400) Reading register [22] = 0xx
(241374900) Reading register [23] = 0xx
(241412400) Reading register [24] = 0xx
(241449900) Reading register [25] = 0xx
(241487400) Reading register [26] = 0xx
(241524900) Reading register [27] = 0xx
(241562400) Reading register [28] = 0xx
(241599900) Reading register [29] = 0xx
(241600000) Currently 0 bytes in fifo (0 packets)
(241600000) Writing register [1] with 0x4
(241637400) Rx buffer released.





(241637400)
(241674900) Reading register [20] = 0xx
(241712400) Reading register [21] = 0xx
(241749900) Reading register [22] = 0xx
(241787400) Reading register [23] = 0xx
(241824900) Reading register [24] = 0xx
(241862400) Reading register [25] = 0xx
(241899900) Reading register [26] = 0xx
(241937400) Reading register [27] = 0xx
(241974900) Reading register [28] = 0xx
(242012400) Reading register [29] = 0xx
(242012500) Currently 0 bytes in fifo (63 packets)
(242012500) Writing register [1] with 0x4
(242049900) Rx buffer released.





(242049900)
(242087400) Reading register [20] = 0xx
(242124900) Reading register [21] = 0xx
(242162400) Reading register [22] = 0xx
(242199900) Reading register [23] = 0xx
(242237400) Reading register [24] = 0xx
(242274900) Reading register [25] = 0xx
(242312400) Reading register [26] = 0xx
(242349900) Reading register [27] = 0xx
(242387400) Reading register [28] = 0xx
(242424900) Reading register [29] = 0xx
(242425000) Currently 0 bytes in fifo (62 packets)
(242425000) Writing register [1] with 0x4
(242462400) Rx buffer released.





(242462400)
(242499900) Reading register [20] = 0xx
(242537400) Reading register [21] = 0xx
(242574900) Reading register [22] = 0xx
(242612400) Reading register [23] = 0xx
(242649900) Reading register [24] = 0xx
(242687400) Reading register [25] = 0xx
(242724900) Reading register [26] = 0xx
(242762400) Reading register [27] = 0xx
(242799900) Reading register [28] = 0xx
(242837400) Reading register [29] = 0xx
(242837500) Currently 0 bytes in fifo (61 packets)





(376834400)
(376874900) Reading register [20] = 0xx
(376912400) Reading register [21] = 0xx
(376949900) Reading register [22] = 0xx
(376987400) Reading register [23] = 0xx
(377024900) Reading register [24] = 0xx
(377062400) Reading register [25] = 0xx
(377099900) Reading register [26] = 0xx
(377137400) Reading register [27] = 0xx
(377174900) Reading register [28] = 0xx
(377212400) Reading register [29] = 0xx
(377212500) Currently 0 bytes in fifo (61 packets)
(377212500) Writing register [1] with 0x4
(377249900) Rx buffer released.





(377249900)
(377287400) Reading register [20] = 0xx
(377324900) Reading register [21] = 0xx
(377362400) Reading register [22] = 0xx
(377399900) Reading register [23] = 0xx
(377437400) Reading register [24] = 0xx
(377474900) Reading register [25] = 0xx
(377512400) Reading register [26] = 0xx
(377549900) Reading register [27] = 0xx
(377587400) Reading register [28] = 0xx
(377624900) Reading register [29] = 0xx
(377625000) Currently 0 bytes in fifo (60 packets)
(377625000) Writing register [1] with 0x4
(377662400) Rx buffer released.





(377662400)
(377699900) Reading register [20] = 0xx
(377737400) Reading register [21] = 0xx
(377774900) Reading register [22] = 0xx
(377812400) Reading register [23] = 0xx
(377849900) Reading register [24] = 0xx
(377887400) Reading register [25] = 0xx
(377924900) Reading register [26] = 0xx
(377962400) Reading register [27] = 0xx
(377999900) Reading register [28] = 0xx
(378037400) Reading register [29] = 0xx
(378037500) Currently 0 bytes in fifo (59 packets)
(378037500) Writing register [1] with 0x4
(378074900) Rx buffer released.





(378074900)
(378112400) Reading register [20] = 0xx
(378149900) Reading register [21] = 0xx
(378187400) Reading register [22] = 0xx
(378224900) Reading register [23] = 0xx
(378262400) Reading register [24] = 0xx
(378299900) Reading register [25] = 0xx
(378337400) Reading register [26] = 0xx
(378374900) Reading register [27] = 0xx
(378412400) Reading register [28] = 0xx
(378449900) Reading register [29] = 0xx
(378450000) Currently 0 bytes in fifo (58 packets)


(447446900)
(447487400) Reading register [20] = 0xx
(447524900) Reading register [21] = 0xx
(447562400) Reading register [22] = 0xx
(447599900) Reading register [23] = 0xx
(447637400) Reading register [24] = 0xx
(447674900) Reading register [25] = 0xx
(447712400) Reading register [26] = 0xx
(447749900) Reading register [27] = 0xx
(447787400) Reading register [28] = 0xx
(447824900) Reading register [29] = 0xx
(447825000) Currently 0 bytes in fifo (58 packets)


(524821900)
(524862400) Reading register [20] = 0xx
(524899900) Reading register [21] = 0xx
(524937400) Reading register [22] = 0xx
(524974900) Reading register [23] = 0xx
(525012400) Reading register [24] = 0xx
(525049900) Reading register [25] = 0xx
(525087400) Reading register [26] = 0xx
(525124900) Reading register [27] = 0xx
(525162400) Reading register [28] = 0xx
(525199900) Reading register [29] = 0xx
(525200000) Currently 0 bytes in fifo (58 packets)
(612196900) Currently 0 bytes in fifo (58 packets)


(612196900)
(612237400) Reading register [20] = 0xx
(612274900) Reading register [21] = 0xx
(612312400) Reading register [22] = 0xx
(612349900) Reading register [23] = 0xx
(612387400) Reading register [24] = 0xx
(612424900) Reading register [25] = 0xx
(612462400) Reading register [26] = 0xx
(612499900) Reading register [27] = 0xx
(612537400) Reading register [28] = 0xx
(612574900) Reading register [29] = 0xx
(705571900) Currently 0 bytes in fifo (58 packets)
(807571900) Currently 0 bytes in fifo (58 packets)
(917571900) Currently 0 bytes in fifo (58 packets)
(1035571900) Currently 0 bytes in fifo (58 packets)
(1160571900) Currently 0 bytes in fifo (58 packets)
(1160571900) Writing register [1] with 0x4
(1160612400) Rx buffer released.
(1160612400) Writing register [1] with 0x4
(1160649900) Rx buffer released.
(1160649900) Currently 0 bytes in fifo (56 packets)
(1294646900) Currently 0 bytes in fifo (56 packets)



(1294646900) Writing register [1] with 0x4
(1294687400) Rx buffer released.


(1294687400)
(1294724900) Reading register [20] = 0xx
(1294762400) Reading register [21] = 0xx
(1294799900) Reading register [22] = 0xx
(1294837400) Reading register [23] = 0xx
(1294874900) Reading register [24] = 0xx
(1294912400) Reading register [25] = 0xx
(1294949900) Reading register [26] = 0xx
(1294987400) Reading register [27] = 0xx
(1295024900) Reading register [28] = 0xx
(1295062400) Reading register [29] = 0xx
(1295062500) Currently 0 bytes in fifo (55 packets)
(1295062500) Writing register [1] with 0x4
(1295099900) Rx buffer released.


(1295099900)
(1295137400) Reading register [20] = 0xx
(1295174900) Reading register [21] = 0xx
(1295212400) Reading register [22] = 0xx
(1295249900) Reading register [23] = 0xx
(1295287400) Reading register [24] = 0xx
(1295324900) Reading register [25] = 0xx
(1295362400) Reading register [26] = 0xx
(1295399900) Reading register [27] = 0xx
(1295437400) Reading register [28] = 0xx
(1295474900) Reading register [29] = 0xx
(1295475000) Currently 0 bytes in fifo (54 packets)
(1295475000) Writing register [1] with 0x4
(1295512400) Rx buffer released.


(1295512400)
(1295549900) Reading register [20] = 0xx
(1295587400) Reading register [21] = 0xx
(1295624900) Reading register [22] = 0xx
(1295662400) Reading register [23] = 0xx
(1295699900) Reading register [24] = 0xx
(1295737400) Reading register [25] = 0xx
(1295774900) Reading register [26] = 0xx
(1295812400) Reading register [27] = 0xx
(1295849900) Reading register [28] = 0xx
(1295887400) Reading register [29] = 0xx
(1295887500) Currently 0 bytes in fifo (53 packets)
(1295887500) Writing register [1] with 0x4
(1295924900) Rx buffer released.


(1295924900)
(1295962400) Reading register [20] = 0xx
(1295999900) Reading register [21] = 0xx
(1296037400) Reading register [22] = 0xx
(1296074900) Reading register [23] = 0xx
(1296112400) Reading register [24] = 0xx
(1296149900) Reading register [25] = 0xx
(1296187400) Reading register [26] = 0xx
(1296224900) Reading register [27] = 0xx
(1296262400) Reading register [28] = 0xx
(1296299900) Reading register [29] = 0xx
(1296300000) Currently 0 bytes in fifo (52 packets)
(1296300000) Writing register [1] with 0x4
(1296337400) Rx buffer released.


(1296337400)
(1296374900) Reading register [20] = 0xx
(1296412400) Reading register [21] = 0xx
(1296449900) Reading register [22] = 0xx
(1296487400) Reading register [23] = 0xx
(1296524900) Reading register [24] = 0xx
(1296562400) Reading register [25] = 0xx
(1296599900) Reading register [26] = 0xx
(1296637400) Reading register [27] = 0xx
(1296674900) Reading register [28] = 0xx
(1296712400) Reading register [29] = 0xx
(1296712500) Currently 0 bytes in fifo (51 packets)
(1296712500) Writing register [1] with 0x4
(1296749900) Rx buffer released.


(1296749900)
(1296787400) Reading register [20] = 0xx
(1296824900) Reading register [21] = 0xx
(1296862400) Reading register [22] = 0xx
(1296899900) Reading register [23] = 0xx
(1296937400) Reading register [24] = 0xx
(1296974900) Reading register [25] = 0xx
(1297012400) Reading register [26] = 0xx
(1297049900) Reading register [27] = 0xx
(1297087400) Reading register [28] = 0xx
(1297124900) Reading register [29] = 0xx
(1297125000) Currently 0 bytes in fifo (50 packets)
(1297125000) Writing register [1] with 0x4
(1297162400) Rx buffer released.


(1297162400)
(1297199900) Reading register [20] = 0xx
(1297237400) Reading register [21] = 0xx
(1297274900) Reading register [22] = 0xx
(1297312400) Reading register [23] = 0xx
(1297349900) Reading register [24] = 0xx
(1297387400) Reading register [25] = 0xx
(1297424900) Reading register [26] = 0xx
(1297462400) Reading register [27] = 0xx
(1297499900) Reading register [28] = 0xx
(1297537400) Reading register [29] = 0xx
(1297537500) Currently 0 bytes in fifo (49 packets)
(1297537500) Writing register [0] with 0x1e


(1474571900)
(1474612400) Reading register [20] = 0xe8
(1474649900) Reading register [21] = 0x23
(1474687400) Reading register [22] = 0x12
(1474724900) Reading register [23] = 0x34
(1474762400) Reading register [24] = 0x56
(1474799900) Reading register [25] = 0xe8
(1474837400) Reading register [26] = 0x27
(1474874900) Reading register [27] = 0x12
(1474912400) Reading register [28] = 0x34
(1474949900) Reading register [29] = 0x56
(1474950000) Currently 14 bytes in fifo (51 packets)
(1474950000) Writing register [1] with 0x4
(1474987400) Rx buffer released.





(1474987400)
(1475024900) Reading register [20] = 0xe8
(1475062400) Reading register [21] = 0x23
(1475099900) Reading register [22] = 0x12
(1475137400) Reading register [23] = 0x34
(1475174900) Reading register [24] = 0x56
(1475212400) Reading register [25] = 0xe8
(1475249900) Reading register [26] = 0x27
(1475287400) Reading register [27] = 0x12
(1475324900) Reading register [28] = 0x34
(1475362400) Reading register [29] = 0x56
(1475362500) Currently 14 bytes in fifo (50 packets)
(1475362500) Writing register [1] with 0x4
(1475399900) Rx buffer released.





(1475399900)
(1475437400) Reading register [20] = 0xe8
(1475474900) Reading register [21] = 0x23
(1475512400) Reading register [22] = 0x12
(1475549900) Reading register [23] = 0x34
(1475587400) Reading register [24] = 0x56
(1475624900) Reading register [25] = 0xe8
(1475662400) Reading register [26] = 0x27
(1475699900) Reading register [27] = 0x12
(1475737400) Reading register [28] = 0x34
(1475774900) Reading register [29] = 0x56
(1475775000) Currently 14 bytes in fifo (49 packets)
(1475775000) Writing register [1] with 0x4
(1475812400) Rx buffer released.





(1475812400)
(1475849900) Reading register [20] = 0xe8
(1475887400) Reading register [21] = 0x23
(1475924900) Reading register [22] = 0x12
(1475962400) Reading register [23] = 0x34
(1475999900) Reading register [24] = 0x56
(1476037400) Reading register [25] = 0xe8
(1476074900) Reading register [26] = 0x27
(1476112400) Reading register [27] = 0x12
(1476149900) Reading register [28] = 0x34
(1476187400) Reading register [29] = 0x56
(1476187500) Currently 14 bytes in fifo (48 packets)





(1589184400)
(1589224900) Reading register [20] = 0xe8
(1589262400) Reading register [21] = 0x23
(1589299900) Reading register [22] = 0x12
(1589337400) Reading register [23] = 0x34
(1589374900) Reading register [24] = 0x56
(1589412400) Reading register [25] = 0xe8
(1589449900) Reading register [26] = 0x27
(1589487400) Reading register [27] = 0x12
(1589524900) Reading register [28] = 0x34
(1589562400) Reading register [29] = 0x56
(1589562500) Currently 24 bytes in fifo (49 packets)
(1589562500) Writing register [1] with 0x4
(1589599900) Rx buffer released.





(1589599900)
(1589637400) Reading register [20] = 0xe8
(1589674900) Reading register [21] = 0x23
(1589712400) Reading register [22] = 0x12
(1589749900) Reading register [23] = 0x34
(1589787400) Reading register [24] = 0x56
(1589824900) Reading register [25] = 0xe8
(1589862400) Reading register [26] = 0x27
(1589899900) Reading register [27] = 0x12
(1589937400) Reading register [28] = 0x34
(1589974900) Reading register [29] = 0x56
(1589975000) Currently 24 bytes in fifo (48 packets)
(1589975000) Writing register [1] with 0x4
(1590012400) Rx buffer released.





(1590012400)
(1590049900) Reading register [20] = 0xe8
(1590087400) Reading register [21] = 0x23
(1590124900) Reading register [22] = 0x12
(1590162400) Reading register [23] = 0x34
(1590199900) Reading register [24] = 0x56
(1590237400) Reading register [25] = 0xe8
(1590274900) Reading register [26] = 0x27
(1590312400) Reading register [27] = 0x12
(1590349900) Reading register [28] = 0x34
(1590387400) Reading register [29] = 0x56
(1590387500) Currently 24 bytes in fifo (47 packets)
(1590387500) Writing register [0] with 0x10



(1639421900) Currently 26 bytes in fifo (48 packets)
(1696421900) Currently 29 bytes in fifo (49 packets)
(1761421900) Currently 33 bytes in fifo (50 packets)
(1834421900) Currently 38 bytes in fifo (51 packets)
(1915421900) Currently 44 bytes in fifo (52 packets)
(2003421900) Currently 51 bytes in fifo (53 packets)
(2100421900) Currently 59 bytes in fifo (54 packets)
(2204421900) Currently 64 bytes in fifo (55 packets)
(2317421900) Currently 64 bytes in fifo (56 packets)
(2431284400) Currently 64 bytes in fifo (57 packets)
FIFO should be full now
2 packets won't be received because of the overrun. IRQ should be set
(2545134400) Currently 64 bytes in fifo (58 packets)
(2658984400) Currently 64 bytes in fifo (59 packets)
Now we'll release 1 packet.
(2658984400) Writing register [1] with 0x4
(2659024900) Rx buffer released.
(2659024900) Currently 64 bytes in fifo (58 packets)
Getting 1 small packet (just big enough). Fifo is full again
(2708834400) Currently 64 bytes in fifo (59 packets)
1 packets won't be received because of the overrun. IRQ should be set
(2821834400) Currently 64 bytes in fifo (60 packets)
1 packets won't be received because of the overrun. IRQ should be set
(2935684400) Currently 64 bytes in fifo (61 packets)
Releasing 3 packets.
(2935684400) Writing register [1] with 0x4
(2935724900) Rx buffer released.
(2935724900) Writing register [1] with 0x4
(2935762400) Rx buffer released.
(2935762400) Writing register [1] with 0x4
(2935799900) Rx buffer released.


(2935799900)
(2935837400) Reading register [20] = 0xe8
(2935874900) Reading register [21] = 0x23
(2935912400) Reading register [22] = 0x12
(2935949900) Reading register [23] = 0x34
(2935987400) Reading register [24] = 0x56
(2936024900) Reading register [25] = 0xe8
(2936062400) Reading register [26] = 0x27
(2936099900) Reading register [27] = 0x12
(2936137400) Reading register [28] = 0x34
(2936174900) Reading register [29] = 0x56
(2936175000) Currently 64 bytes in fifo (58 packets)
(3049534400) Currently 64 bytes in fifo (59 packets)



(3049534400) Writing register [1] with 0x4
(3049574900) Rx buffer released.


(3049574900)
(3049612400) Reading register [20] = 0xe8
(3049649900) Reading register [21] = 0x23
(3049687400) Reading register [22] = 0x12
(3049724900) Reading register [23] = 0x34
(3049762400) Reading register [24] = 0x56
(3049799900) Reading register [25] = 0xe8
(3049837400) Reading register [26] = 0x27
(3049874900) Reading register [27] = 0x12
(3049912400) Reading register [28] = 0x34
(3049949900) Reading register [29] = 0x56
(3049950000) Currently 64 bytes in fifo (58 packets)
(3049950000) Writing register [1] with 0x4
(3049987400) Rx buffer released.


(3049987400)
(3050024900) Reading register [20] = 0xe8
(3050062400) Reading register [21] = 0x23
(3050099900) Reading register [22] = 0x12
(3050137400) Reading register [23] = 0x34
(3050174900) Reading register [24] = 0x56
(3050212400) Reading register [25] = 0xe8
(3050249900) Reading register [26] = 0x27
(3050287400) Reading register [27] = 0x12
(3050324900) Reading register [28] = 0x34
(3050362400) Reading register [29] = 0x56
(3050362500) Currently 64 bytes in fifo (57 packets)
(3050362500) Writing register [1] with 0x4
(3050399900) Rx buffer released.


(3050399900)
(3050437400) Reading register [20] = 0xe8
(3050474900) Reading register [21] = 0x23
(3050512400) Reading register [22] = 0x12
(3050549900) Reading register [23] = 0x34
(3050587400) Reading register [24] = 0x56
(3050624900) Reading register [25] = 0xe8
(3050662400) Reading register [26] = 0x27
(3050699900) Reading register [27] = 0x12
(3050737400) Reading register [28] = 0x34
(3050774900) Reading register [29] = 0x56
(3050775000) Currently 64 bytes in fifo (56 packets)
(3050775000) Writing register [1] with 0x4
(3050812400) Rx buffer released.


(3050812400)
(3050849900) Reading register [20] = 0xe8
(3050887400) Reading register [21] = 0x23
(3050924900) Reading register [22] = 0x12
(3050962400) Reading register [23] = 0x34
(3050999900) Reading register [24] = 0x56
(3051037400) Reading register [25] = 0xe8
(3051074900) Reading register [26] = 0x27
(3051112400) Reading register [27] = 0x12
(3051149900) Reading register [28] = 0x34
(3051187400) Reading register [29] = 0x56
(3051187500) Currently 64 bytes in fifo (55 packets)
(3051187500) Writing register [1] with 0x4
(3051224900) Rx buffer released.


(3051224900)
(3051262400) Reading register [20] = 0xe8
(3051299900) Reading register [21] = 0x23
(3051337400) Reading register [22] = 0x12
(3051374900) Reading register [23] = 0x34
(3051412400) Reading register [24] = 0x56
(3051449900) Reading register [25] = 0xe8
(3051487400) Reading register [26] = 0x27
(3051524900) Reading register [27] = 0x12
(3051562400) Reading register [28] = 0x34
(3051599900) Reading register [29] = 0x56
(3051600000) Currently 64 bytes in fifo (54 packets)
(3051600000) Writing register [1] with 0x4
(3051637400) Rx buffer released.


(3051637400)
(3051674900) Reading register [20] = 0xe8
(3051712400) Reading register [21] = 0x23
(3051749900) Reading register [22] = 0x12
(3051787400) Reading register [23] = 0x34
(3051824900) Reading register [24] = 0x56
(3051862400) Reading register [25] = 0xe8
(3051899900) Reading register [26] = 0x27
(3051937400) Reading register [27] = 0x12
(3051974900) Reading register [28] = 0x34
(3052012400) Reading register [29] = 0x56
(3052012500) Currently 64 bytes in fifo (53 packets)
(3052012500) Writing register [1] with 0x8
(3052049900) Data overrun cleared.
(3052049900) Writing register [1] with 0x4
(3052087400) Rx buffer released.


(3052087400)
(3052124900) Reading register [20] = 0xe8
(3052162400) Reading register [21] = 0x23
(3052199900) Reading register [22] = 0x12
(3052237400) Reading register [23] = 0x34
(3052274900) Reading register [24] = 0x56
(3052312400) Reading register [25] = 0xe8
(3052349900) Reading register [26] = 0x27
(3052387400) Reading register [27] = 0x12
(3052424900) Reading register [28] = 0x34
(3052462400) Reading register [29] = 0x56
(3052462500) Currently 64 bytes in fifo (52 packets)
(3052462500) Writing register [1] with 0x4
(3052499900) Rx buffer released.


(3052499900)
(3052537400) Reading register [20] = 0xe8
(3052574900) Reading register [21] = 0x23
(3052612400) Reading register [22] = 0x12
(3052649900) Reading register [23] = 0x34
(3052687400) Reading register [24] = 0x56
(3052724900) Reading register [25] = 0xe8
(3052762400) Reading register [26] = 0x27
(3052799900) Reading register [27] = 0x12
(3052837400) Reading register [28] = 0x34
(3052874900) Reading register [29] = 0x56
(3052875000) Currently 64 bytes in fifo (51 packets)
(3052875000) Writing register [1] with 0x8
(3052912400) Data overrun cleared.
(3052912400) Writing register [1] with 0x4
(3052949900) Rx buffer released.


(3052949900)
(3052987400) Reading register [20] = 0xe8
(3053024900) Reading register [21] = 0x23
(3053062400) Reading register [22] = 0x12
(3053099900) Reading register [23] = 0x34
(3053137400) Reading register [24] = 0x56
(3053174900) Reading register [25] = 0xe8
(3053212400) Reading register [26] = 0x27
(3053249900) Reading register [27] = 0x12
(3053287400) Reading register [28] = 0x34
(3053324900) Reading register [29] = 0x56
(3053325000) Currently 64 bytes in fifo (50 packets)
(3053325000) Writing register [1] with 0x4
(3053362400) Rx buffer released.


(3053362400)
(3053399900) Reading register [20] = 0xe8
(3053437400) Reading register [21] = 0x23
(3053474900) Reading register [22] = 0x12
(3053512400) Reading register [23] = 0x34
(3053549900) Reading register [24] = 0x56
(3053587400) Reading register [25] = 0xe8
(3053624900) Reading register [26] = 0x27
(3053662400) Reading register [27] = 0x12
(3053699900) Reading register [28] = 0x34
(3053737400) Reading register [29] = 0x56
(3053737500) Currently 64 bytes in fifo (49 packets)
(3053737500) Writing register [1] with 0x4
(3053774900) Rx buffer released.


(3053774900)
(3053812400) Reading register [20] = 0xe8
(3053849900) Reading register [21] = 0x23
(3053887400) Reading register [22] = 0x12
(3053924900) Reading register [23] = 0x34
(3053962400) Reading register [24] = 0x56
(3053999900) Reading register [25] = 0xe8
(3054037400) Reading register [26] = 0x27
(3054074900) Reading register [27] = 0x12
(3054112400) Reading register [28] = 0x34
(3054149900) Reading register [29] = 0x56
(3054150000) Currently 64 bytes in fifo (48 packets)
(3054150000) Writing register [1] with 0x4
(3054187400) Rx buffer released.


(3054187400)
(3054224900) Reading register [20] = 0xe8
(3054262400) Reading register [21] = 0x23
(3054299900) Reading register [22] = 0x12
(3054337400) Reading register [23] = 0x34
(3054374900) Reading register [24] = 0x56
(3054412400) Reading register [25] = 0xe8
(3054449900) Reading register [26] = 0x27
(3054487400) Reading register [27] = 0x12
(3054524900) Reading register [28] = 0x34
(3054562400) Reading register [29] = 0x56
(3054562500) Currently 64 bytes in fifo (47 packets)
(3054562500) Writing register [1] with 0x4
(3054599900) Rx buffer released.


(3054599900)
(3054637400) Reading register [20] = 0xe8
(3054674900) Reading register [21] = 0x23
(3054712400) Reading register [22] = 0x12
(3054749900) Reading register [23] = 0x34
(3054787400) Reading register [24] = 0x56
(3054824900) Reading register [25] = 0xe8
(3054862400) Reading register [26] = 0x27
(3054899900) Reading register [27] = 0x12
(3054937400) Reading register [28] = 0x34
(3054974900) Reading register [29] = 0x56
(3054975000) Currently 64 bytes in fifo (46 packets)
(3055012400) Reading register [3] = 0xe0
(3055049900) Reading register [3] = 0xe0
(3055150000) Writing register [1] with 0x4
(3055187400) Rx buffer released.





(3055187400)
(3055224900) Reading register [20] = 0xe8
(3055262400) Reading register [21] = 0x23
(3055299900) Reading register [22] = 0x12
(3055337400) Reading register [23] = 0x34
(3055374900) Reading register [24] = 0x56
(3055412400) Reading register [25] = 0xe8
(3055449900) Reading register [26] = 0x27
(3055487400) Reading register [27] = 0x12
(3055524900) Reading register [28] = 0x34
(3055562400) Reading register [29] = 0x56
(3055562500) Currently 64 bytes in fifo (45 packets)
expect: Until now no data was received

(3288559400) Currently 64 bytes in fifo (45 packets)


(3288559400)
(3288599900) Reading register [20] = 0xe8
(3288637400) Reading register [21] = 0x23
(3288674900) Reading register [22] = 0x12
(3288712400) Reading register [23] = 0x34
(3288749900) Reading register [24] = 0x56
(3288787400) Reading register [25] = 0xe8
(3288824900) Reading register [26] = 0x27
(3288862400) Reading register [27] = 0x12
(3288899900) Reading register [28] = 0x34
(3288937400) Reading register [29] = 0x56
expect: 3 packets should be received (totally 18 bytes)

(3288937500) Writing register [1] with 0x4
(3288974900) Rx buffer released.
(3288974900) Currently 64 bytes in fifo (44 packets)


(3288974900)
(3289012400) Reading register [20] = 0xe8
(3289049900) Reading register [21] = 0x23
(3289087400) Reading register [22] = 0x12
(3289124900) Reading register [23] = 0x34
(3289162400) Reading register [24] = 0x56
(3289199900) Reading register [25] = 0xe8
(3289237400) Reading register [26] = 0x27
(3289274900) Reading register [27] = 0x12
(3289312400) Reading register [28] = 0x34
(3289349900) Reading register [29] = 0x56
expect: 2 packets should be received (totally 13 bytes)

expect: SW reset performed

(3289350000) Writing register [0] with 0x1
(3289387400) Writing register [0] with 0x0
(3289424900) Currently 0 bytes in fifo (0 packets)


(3289424900)
(3289462400) Reading register [20] = 0xe8
(3289499900) Reading register [21] = 0x23
(3289537400) Reading register [22] = 0x12
(3289574900) Reading register [23] = 0x34
(3289612400) Reading register [24] = 0x56
(3289649900) Reading register [25] = 0xe8
(3289687400) Reading register [26] = 0x27
(3289724900) Reading register [27] = 0x12
(3289762400) Reading register [28] = 0x34
(3289799900) Reading register [29] = 0x56
expect: The above read was after the SW reset.

(3382796900) Currently 0 bytes in fifo (0 packets)


(3382796900)
(3382837400) Reading register [20] = 0xe8
(3382874900) Reading register [21] = 0x23
(3382912400) Reading register [22] = 0x12
(3382949900) Reading register [23] = 0x34
(3382987400) Reading register [24] = 0x56
(3383024900) Reading register [25] = 0xe8
(3383062400) Reading register [26] = 0x27
(3383099900) Reading register [27] = 0x12
(3383137400) Reading register [28] = 0x34
(3383174900) Reading register [29] = 0x56
expect: 1 packets should be received (totally 8 bytes). See above.

expect: SW reset ON

(3383175000) Writing register [0] with 0x1
(3493209400) Currently 0 bytes in fifo (0 packets)


(3493209400)
(3493249900) Reading register [20] = 0xe8
(3493287400) Reading register [21] = 0x23
(3493324900) Reading register [22] = 0x12
(3493362400) Reading register [23] = 0x34
(3493399900) Reading register [24] = 0x56
(3493437400) Reading register [25] = 0xe8
(3493474900) Reading register [26] = 0x27
(3493512400) Reading register [27] = 0x12
(3493549900) Reading register [28] = 0x34
(3493587400) Reading register [29] = 0x56
expect: 0 packets should be received because we are in reset. (totally 0 bytes). See above.

(3493587500) Currently 0 bytes in fifo (0 packets)
(3603584400) Currently 0 bytes in fifo (0 packets)
(3721584400) Currently 0 bytes in fifo (0 packets)
(3846584400) Currently 0 bytes in fifo (0 packets)
(3846584400) Writing register [1] with 0x4
(3846624900) Rx buffer released.
(3846624900) Writing register [1] with 0x4
(3846662400) Rx buffer released.
(3846662400) Currently 0 bytes in fifo (0 packets)
expect: SW reset OFF

(3846662400) Writing register [0] with 0x0
(3980696900) Currently 0 bytes in fifo (0 packets)


(3980696900)
(3980737400) Reading register [20] = 0xe8
(3980774900) Reading register [21] = 0x23
(3980812400) Reading register [22] = 0x12
(3980849900) Reading register [23] = 0x34
(3980887400) Reading register [24] = 0x56
(3980924900) Reading register [25] = 0xe8
(3980962400) Reading register [26] = 0x27
(3980999900) Reading register [27] = 0x12
(3981037400) Reading register [28] = 0x34
(3981074900) Reading register [29] = 0x56
expect: 1 packets should be received (totally 13 bytes). See above.

(3981075000) Writing register [1] with 0x4
(3981112400) Rx buffer released.
(3981112400) Currently 0 bytes in fifo (63 packets)


(3981112400)
(3981149900) Reading register [20] = 0xe8
(3981187400) Reading register [21] = 0x23
(3981224900) Reading register [22] = 0x12
(3981262400) Reading register [23] = 0x34
(3981299900) Reading register [24] = 0x56
(3981337400) Reading register [25] = 0xe8
(3981374900) Reading register [26] = 0x27
(3981412400) Reading register [27] = 0x12
(3981449900) Reading register [28] = 0x34
(3981487400) Reading register [29] = 0x56
expect: 0 packets should be received (totally 0 bytes). See above.




expect: SW reset ON while receiving a packet

(3982287500) Writing register [0] with 0x1


(4091484400)
(4091524900) Reading register [20] = 0xe8
(4091562400) Reading register [21] = 0x23
(4091599900) Reading register [22] = 0x12
(4091637400) Reading register [23] = 0x34
(4091674900) Reading register [24] = 0x56
(4091712400) Reading register [25] = 0xe8
(4091749900) Reading register [26] = 0x27
(4091787400) Reading register [27] = 0x12
(4091824900) Reading register [28] = 0x34
(4091862400) Reading register [29] = 0x56
(4091862500) Currently 0 bytes in fifo (0 packets)
expect: 0 packets should be received (totally 0 bytes) because CAN was in reset. See above.

(4091862500) Writing register [1] with 0x4
(4091899900) Rx buffer released.


(4091899900)
(4091937400) Reading register [20] = 0xe8
(4091974900) Reading register [21] = 0x23
(4092012400) Reading register [22] = 0x12
(4092049900) Reading register [23] = 0x34
(4092087400) Reading register [24] = 0x56
(4092124900) Reading register [25] = 0xe8
(4092162400) Reading register [26] = 0x27
(4092199900) Reading register [27] = 0x12
(4092237400) Reading register [28] = 0x34
(4092274900) Reading register [29] = 0x56
(4092275000) Currently 0 bytes in fifo (0 packets)
(4092275000) Writing register [10] with 0xe8
(4092312400) Writing register [11] with 0xb7
(4092349900) Writing register [12] with 0x0
(4092387400) Writing register [13] with 0x0
(4092424900) Writing register [14] with 0x0
(4092462400) Writing register [15] with 0x0
(4092499900) Writing register [16] with 0x0
(4092537400) Writing register [17] with 0x0
(4092574900) Writing register [18] with 0x0
(4092612400) Writing register [19] with 0x0
(4092649900) Writing register [1] with 0x1
(4092687400) Tx requested.
(4940887400) Reading register [3] = 0xe0
(7014924900) Reading register [3] = 0xe0
(7024925000) Writing register [0] with 0x0
(7728999900) Reading register [3] = 0xe0
(8433037400) Reading register [3] = 0xe0
(8433037500) Writing register [1] with 0x1
(8433074900) Tx requested.


(8481146900)
(8481187400) Reading register [20] = 0xe8
(8481224900) Reading register [21] = 0x23
(8481262400) Reading register [22] = 0x12
(8481299900) Reading register [23] = 0x34
(8481337400) Reading register [24] = 0x56
(8481374900) Reading register [25] = 0xe8
(8481412400) Reading register [26] = 0x27
(8481449900) Reading register [27] = 0x12
(8481487400) Reading register [28] = 0x34
(8481524900) Reading register [29] = 0x56
(8481525000) Writing register [1] with 0x4
(8481562400) Rx buffer released.


(8481562400)
(8481599900) Reading register [20] = 0xe8
(8481637400) Reading register [21] = 0x23
(8481674900) Reading register [22] = 0x12
(8481712400) Reading register [23] = 0x34
(8481749900) Reading register [24] = 0x56
(8481787400) Reading register [25] = 0xe8
(8481824900) Reading register [26] = 0x27
(8481862400) Reading register [27] = 0x12
(8481899900) Reading register [28] = 0x34
(8481937400) Reading register [29] = 0x56
(8481937500) Writing register [1] with 0x4
(8481974900) Rx buffer released.


(8481974900)
(8482012400) Reading register [20] = 0xe8
(8482049900) Reading register [21] = 0x23
(8482087400) Reading register [22] = 0x12
(8482124900) Reading register [23] = 0x34
(8482162400) Reading register [24] = 0x56
(8482199900) Reading register [25] = 0xe8
(8482237400) Reading register [26] = 0x27
(8482274900) Reading register [27] = 0x12
(8482312400) Reading register [28] = 0x34
(8482349900) Reading register [29] = 0x56
(9040984400) Writing register [0] with 0x1
(9041018700) Writing register [31] with 0x80
(9041056200) Writing register [15] with 0xff
(9041093700) Writing register [0] with 0x0
(9291131200) Writing register [0] with 0x1
(9291168700) Writing register [15] with 0xf5
(9291206200) Writing register [0] with 0x0
(9391243700) Writing register [0] with 0x1
(9391281200) Writing register [31] with 0x80
(9391318700) Writing register [16] with 0xa6
(9391356200) Writing register [17] with 0xb0
(9391393700) Writing register [18] with 0x12
(9391431200) Writing register [19] with 0x30
(9391468700) Writing register [20] with 0x0
(9391506200) Writing register [21] with 0x0
(9391543700) Writing register [22] with 0x0
(9391581200) Writing register [23] with 0x0
(9391618700) Writing register [0] with 0x4
(9391656200) Writing register [0] with 0x0
(9402690600) Writing register [16] with 0x45
(9402731200) Writing register [17] with 0xa6
(9402768700) Writing register [18] with 0xa0
(9402806200) Writing register [4] with 0xff
(9402843700) Writing register [1] with 0x10
(9402881200) Self reception requested.


(9442881200)
(9442918700) Reading register [16] = 0xe8
(9442956200) Reading register [17] = 0x21
(9442993700) Reading register [18] = 0x12
(9443031200) Reading register [19] = 0x34
(9443068700) Reading register [20] = 0x56
(9443106200) Reading register [21] = 0xe8
(9443143700) Reading register [22] = 0x27
(9443181200) Reading register [23] = 0x12
(9443218700) Reading register [24] = 0x34
(9443256200) Reading register [25] = 0x56
(9443293700) Reading register [26] = 0x78
(9443331200) Reading register [27] = 0x9a
(9443368700) Reading register [28] = 0xbc
(9443368800) Writing register [1] with 0x4
(9443406200) Rx buffer released.
(9443406200) Writing register [1] with 0x4
(9443443700) Rx buffer released.


(9443443700)
(9443481200) Reading register [16] = 0xe8
(9443518700) Reading register [17] = 0x21
(9443556200) Reading register [18] = 0x12
(9443593700) Reading register [19] = 0x34
(9443631200) Reading register [20] = 0x56
(9443668700) Reading register [21] = 0xe8
(9443706200) Reading register [22] = 0x27
(9443743700) Reading register [23] = 0x12
(9443781200) Reading register [24] = 0x34
(9443818700) Reading register [25] = 0x56
(9443856200) Reading register [26] = 0x78
(9443893700) Reading register [27] = 0x9a
(9443931200) Reading register [28] = 0xbc
(9443931300) Writing register [1] with 0x4
(9443968700) Rx buffer released.


(9443968700)
(9444006200) Reading register [16] = 0xe8
(9444043700) Reading register [17] = 0x21
(9444081200) Reading register [18] = 0x12
(9444118700) Reading register [19] = 0x34
(9444156200) Reading register [20] = 0x56
(9444193700) Reading register [21] = 0xe8
(9444231200) Reading register [22] = 0x27
(9444268700) Reading register [23] = 0x12
(9444306200) Reading register [24] = 0x34
(9444343700) Reading register [25] = 0x56
(9444381200) Reading register [26] = 0x78
(9444418700) Reading register [27] = 0x9a
(9444456200) Reading register [28] = 0xbc
(9444456300) Writing register [1] with 0x4
(9444493700) Rx buffer released.


(9444493700)
(9444531200) Reading register [16] = 0xe8
(9444568700) Reading register [17] = 0x21
(9444606200) Reading register [18] = 0x12
(9444643700) Reading register [19] = 0x34
(9444681200) Reading register [20] = 0x56
(9444718700) Reading register [21] = 0xe8
(9444756200) Reading register [22] = 0x27
(9444793700) Reading register [23] = 0x12
(9444831200) Reading register [24] = 0x34
(9444868700) Reading register [25] = 0x56
(9444906200) Reading register [26] = 0x78
(9444943700) Reading register [27] = 0x9a
(9444981200) Reading register [28] = 0xbc
(9444981300) Writing register [1] with 0x4
(9445018700) Rx buffer released.


(9445018700)
(9445056200) Reading register [16] = 0xe8
(9445093700) Reading register [17] = 0x21
(9445131200) Reading register [18] = 0x12
(9445168700) Reading register [19] = 0x34
(9445206200) Reading register [20] = 0x56
(9445243700) Reading register [21] = 0xe8
(9445281200) Reading register [22] = 0x27
(9445318700) Reading register [23] = 0x12
(9445356200) Reading register [24] = 0x34
(9445393700) Reading register [25] = 0x56
(9445431200) Reading register [26] = 0x78
(9445468700) Reading register [27] = 0x9a
(9445506200) Reading register [28] = 0xbc


(9445506300)
(9445543700) Reading register [16] = 0xe8
(9445581200) Reading register [17] = 0x21
(9445618700) Reading register [18] = 0x12
(9445656200) Reading register [19] = 0x34
(9445693700) Reading register [20] = 0x56
(9445731200) Reading register [21] = 0xe8
(9445768700) Reading register [22] = 0x27
(9445806200) Reading register [23] = 0x12
(9445843700) Reading register [24] = 0x34
(9445881200) Reading register [25] = 0x56
(9445918700) Reading register [26] = 0x78
(9445956200) Reading register [27] = 0x9a
(9445993700) Reading register [28] = 0xbc
(9446031200) Reading register [3] = 0x0
(9446131300) Writing register [0] with 0x1
(9446168700) Writing register [4] with 0x28
(9446206200) Writing register [5] with 0xff
(9446865600) Writing register [0] with 0x1e
(9457903100) Writing register [10] with 0x55
(9457943700) Writing register [11] with 0x77
(9457981200) Writing register [12] with 0x0
(9458018700) Writing register [13] with 0x0
(9458056200) Writing register [14] with 0x0
(9458093700) Writing register [15] with 0x0
(9458131200) Writing register [16] with 0x0
(9458168700) Writing register [17] with 0x0
(9458206200) Writing register [18] with 0x0
(9458243700) Writing register [19] with 0x0
(9458281200) Writing register [1] with 0x1
(9458318700) Tx requested.


(9554409400)
(9554449900) Reading register [16] = 0xe8
(9554487400) Reading register [17] = 0x21
(9554524900) Reading register [18] = 0x12
(9554562400) Reading register [19] = 0x34
(9554599900) Reading register [20] = 0x56
(9554637400) Reading register [21] = 0xe8
(9554674900) Reading register [22] = 0x27
(9554712400) Reading register [23] = 0x12
(9554749900) Reading register [24] = 0x34
(9554787400) Reading register [25] = 0x56
(9554824900) Reading register [26] = 0x78
(9554862400) Reading register [27] = 0x9a
(9554899900) Reading register [28] = 0xbc
(9554900000) Writing register [1] with 0x4
(9554937400) Rx buffer released.
(9555074900) Reading register [3] = 0x0


(9555075000)
(9555112400) Reading register [16] = 0xe8
(9555149900) Reading register [17] = 0x21
(9555187400) Reading register [18] = 0x12
(9555224900) Reading register [19] = 0x34
(9555262400) Reading register [20] = 0x56
(9555299900) Reading register [21] = 0xe8
(9555337400) Reading register [22] = 0x27
(9555374900) Reading register [23] = 0x12
(9555412400) Reading register [24] = 0x34
(9555449900) Reading register [25] = 0x56
(9555487400) Reading register [26] = 0x78
(9555524900) Reading register [27] = 0x9a
(9555562400) Reading register [28] = 0xbc
(9555562500) Writing register [1] with 0x4
(9555599900) Rx buffer released.


(9555599900)
(9555637400) Reading register [16] = 0xe8
(9555674900) Reading register [17] = 0x21
(9555712400) Reading register [18] = 0x12
(9555749900) Reading register [19] = 0x34
(9555787400) Reading register [20] = 0x56
(9555824900) Reading register [21] = 0xe8
(9555862400) Reading register [22] = 0x27
(9555899900) Reading register [23] = 0x12
(9555937400) Reading register [24] = 0x34
(9555974900) Reading register [25] = 0x56
(9556012400) Reading register [26] = 0x78
(9556049900) Reading register [27] = 0x9a
(9556087400) Reading register [28] = 0xbc
(9603084400) Writing register [1] with 0x1
(9603124900) Tx requested.
*E (9639034400) ERROR: CRC error (Calculated crc = 0x605b, crc_in = 0x4248)


(9697771900)
(9697812400) Reading register [16] = 0xe8
(9697849900) Reading register [17] = 0x21
(9697887400) Reading register [18] = 0x12
(9697924900) Reading register [19] = 0x34
(9697962400) Reading register [20] = 0x56
(9697999900) Reading register [21] = 0xe8
(9698037400) Reading register [22] = 0x27
(9698074900) Reading register [23] = 0x12
(9698112400) Reading register [24] = 0x34
(9698149900) Reading register [25] = 0x56
(9698187400) Reading register [26] = 0x78
(9698224900) Reading register [27] = 0x9a
(9698262400) Reading register [28] = 0xbc
(9698262500) Writing register [1] with 0x4
(9698299900) Rx buffer released.
(9698437400) Reading register [3] = 0x0


(9698437500)
(9698474900) Reading register [16] = 0xe8
(9698512400) Reading register [17] = 0x21
(9698549900) Reading register [18] = 0x12
(9698587400) Reading register [19] = 0x34
(9698624900) Reading register [20] = 0x56
(9698662400) Reading register [21] = 0xe8
(9698699900) Reading register [22] = 0x27
(9698737400) Reading register [23] = 0x12
(9698774900) Reading register [24] = 0x34
(9698812400) Reading register [25] = 0x56
(9698849900) Reading register [26] = 0x78
(9698887400) Reading register [27] = 0x9a
(9698924900) Reading register [28] = 0xbc
(9698925000) Writing register [1] with 0x4
(9698962400) Rx buffer released.


(9698962400)
(9698999900) Reading register [16] = 0xe8
(9699037400) Reading register [17] = 0x21
(9699074900) Reading register [18] = 0x12
(9699112400) Reading register [19] = 0x34
(9699149900) Reading register [20] = 0x56
(9699187400) Reading register [21] = 0xe8
(9699224900) Reading register [22] = 0x27
(9699262400) Reading register [23] = 0x12
(9699299900) Reading register [24] = 0x34
(9699337400) Reading register [25] = 0x56
(9699374900) Reading register [26] = 0x78
(9699412400) Reading register [27] = 0x9a
(9699449900) Reading register [28] = 0xbc
(10099450000) Writing register [0] with 0x1
(10099487400) Writing register [31] with 0x80
(10099524900) Writing register [16] with 0xa6
(10099562400) Writing register [17] with 0x0
(10099599900) Writing register [18] with 0x5a
(10099637400) Writing register [19] with 0xac
(10099674900) Writing register [20] with 0x0
(10099712400) Writing register [21] with 0x0
(10099749900) Writing register [22] with 0x0
(10099787400) Writing register [23] with 0x0
(10100446900) Writing register [0] with 0x0
(10111484400) Writing register [16] with 0xc5
(10111524900) Writing register [17] with 0xa6
(10111562400) Writing register [18] with 0x0
(10111599900) Writing register [19] with 0x5a
(10111637400) Writing register [20] with 0xa8
(10111674900) Writing register [4] with 0xff
(10111712400) Writing register [1] with 0x1
(10111749900) Tx requested.


(10316796900)
(10316837400) Reading register [16] = 0xc5
(10316874900) Reading register [17] = 0xa6
(10316912400) Reading register [18] = 0x0
(10316949900) Reading register [19] = 0x5a
(10316987400) Reading register [20] = 0xa0
(10317024900) Reading register [21] = 0xc5
(10317062400) Reading register [22] = 0xa6
(10317099900) Reading register [23] = 0x0
(10317137400) Reading register [24] = 0x5a
(10317174900) Reading register [25] = 0x88
(10317212400) Reading register [26] = 0xc5
(10317249900) Reading register [27] = 0xa6
(10317287400) Reading register [28] = 0x0
(10317287500) Writing register [1] with 0x4
(10317324900) Rx buffer released.


(10317324900)
(10317362400) Reading register [16] = 0xc5
(10317399900) Reading register [17] = 0xa6
(10317437400) Reading register [18] = 0x0
(10317474900) Reading register [19] = 0x5a
(10317512400) Reading register [20] = 0x88
(10317549900) Reading register [21] = 0xc5
(10317587400) Reading register [22] = 0xa6
(10317624900) Reading register [23] = 0x0
(10317662400) Reading register [24] = 0x5a
(10317699900) Reading register [25] = 0xa8
(10317737400) Reading register [26] = 0x28
(10317774900) Reading register [27] = 0x12
(10317812400) Reading register [28] = 0x34
(10317812500) Writing register [1] with 0x4
(10317849900) Rx buffer released.


(10317849900)
(10317887400) Reading register [16] = 0xc5
(10317924900) Reading register [17] = 0xa6
(10317962400) Reading register [18] = 0x0
(10317999900) Reading register [19] = 0x5a
(10318037400) Reading register [20] = 0xa8
(10318074900) Reading register [21] = 0x28
(10318112400) Reading register [22] = 0x12
(10318149900) Reading register [23] = 0x34
(10318187400) Reading register [24] = 0x56
(10318224900) Reading register [25] = 0x78
(10318262400) Reading register [26] = 0x9a
(10318299900) Reading register [27] = 0xbc
(10318337400) Reading register [28] = 0xde
(10318374900) Reading register [3] = 0x41
(10318412400) Reading register [12] = 0xb8
(10318449900) Reading register [14] = 0x0
(10318487400) Reading register [15] = 0xf4
(10718487500) Writing register [0] with 0x1
(10718562400) Writing register [31] with 0x80
(10718637400) Writing register [13] with 0x56
(10718674900) Writing register [0] with 0x0
(10718749900) Writing register [4] with 0xff
Kr neki
Change mode to extended mode and test registers
(11018784400) Writing register [0] with 0x1
(11018862400) Writing register [31] with 0x80
(11018937400) Writing register [0] with 0x0
(11019049900) Reading register [1] = 0x0
(11019050000) Writing register [1] with 0x1
(11019124900) Reading register [1] = 0x0
(11019125000) Writing register [1] with 0x2
(11019199900) Reading register [1] = 0x0
(11019200000) Writing register [1] with 0x4
(11019274900) Reading register [1] = 0x0
(11019275000) Writing register [1] with 0x8
(11019349900) Reading register [1] = 0x0
(11019350000) Writing register [1] with 0x10
(11019424900) Reading register [1] = 0x0
(11019425000) Writing register [1] with 0x20
(11019499900) Reading register [1] = 0x0
(11019500000) Writing register [1] with 0x40
(11019574900) Reading register [1] = 0x0
(11019575000) Writing register [1] with 0x80
(11019649900) Reading register [2] = 0x54
(11019650000) Writing register [2] with 0x55
(11019724900) Reading register [2] = 0x54
(11019725000) Writing register [2] with 0x56
(11019799900) Reading register [2] = 0x54
(11019800000) Writing register [2] with 0x54
(11019874900) Reading register [2] = 0x54
(11019875000) Writing register [2] with 0x5c
(11019949900) Reading register [2] = 0x54
(11019950000) Writing register [2] with 0x54
(11020024900) Reading register [2] = 0x54
(11020025000) Writing register [2] with 0x74
(11020099900) Reading register [2] = 0x54
(11020100000) Writing register [2] with 0x54
(11020174900) Reading register [2] = 0x54
(11020175000) Writing register [2] with 0xd4
(11020249900) Reading register [3] = 0x2
(11020250000) Writing register [3] with 0x3
(11020324900) Reading register [3] = 0x0
(11020325000) Writing register [3] with 0x2
(11020399900) Reading register [3] = 0x0
(11020400000) Writing register [3] with 0x4
(11020474900) Reading register [3] = 0x0
(11020475000) Writing register [3] with 0x8
(11020549900) Reading register [3] = 0x0
(11020550000) Writing register [3] with 0x10
(11020624900) Reading register [3] = 0x0
(11020625000) Writing register [3] with 0x20
(11020699900) Reading register [3] = 0x0
(11020700000) Writing register [3] with 0x40
(11020774900) Reading register [3] = 0x0
(11020775000) Writing register [3] with 0x80
(11020849900) Reading register [4] = 0xff
(11020850000) Writing register [4] with 0xff
(11020924900) Reading register [4] = 0xff
(11020925000) Writing register [4] with 0xff
(11020999900) Reading register [4] = 0xff
(11021000000) Writing register [4] with 0xff
(11021074900) Reading register [4] = 0xff
(11021075000) Writing register [4] with 0xff
(11021149900) Reading register [4] = 0xff
(11021150000) Writing register [4] with 0xff
(11021224900) Reading register [4] = 0xff
(11021225000) Writing register [4] with 0xff
(11021299900) Reading register [4] = 0xff
(11021300000) Writing register [4] with 0xff
(11021374900) Reading register [4] = 0xff
(11021375000) Writing register [4] with 0xff
(11021449900) Reading register [5] = 0x0
(11021450000) Writing register [5] with 0x1
(11021524900) Reading register [5] = 0x0
(11021525000) Writing register [5] with 0x2
(11021599900) Reading register [5] = 0x0
(11021600000) Writing register [5] with 0x4
(11021674900) Reading register [5] = 0x0
(11021675000) Writing register [5] with 0x8
(11021749900) Reading register [5] = 0x0
(11021750000) Writing register [5] with 0x10
(11021824900) Reading register [5] = 0x0
(11021825000) Writing register [5] with 0x20
(11021899900) Reading register [5] = 0x0
(11021900000) Writing register [5] with 0x40
(11021974900) Reading register [5] = 0x0
(11021975000) Writing register [5] with 0x80
(11022049900) Reading register [6] = 0x43
(11022050000) Writing register [6] with 0x43
(11022124900) Reading register [6] = 0x43
(11022125000) Writing register [6] with 0x43
(11022199900) Reading register [6] = 0x43
(11022200000) Writing register [6] with 0x47
(11022274900) Reading register [6] = 0x43
(11022275000) Writing register [6] with 0x4b
(11022349900) Reading register [6] = 0x43
(11022350000) Writing register [6] with 0x53
(11022424900) Reading register [6] = 0x43
(11022425000) Writing register [6] with 0x63
(11022499900) Reading register [6] = 0x43
(11022500000) Writing register [6] with 0x43
(11022574900) Reading register [6] = 0x43
(11022575000) Writing register [6] with 0xc3
(11022649900) Reading register [7] = 0x2f
(11022650000) Writing register [7] with 0x2f
(11022724900) Reading register [7] = 0x2f
(11022725000) Writing register [7] with 0x2f
(11022799900) Reading register [7] = 0x2f
(11022800000) Writing register [7] with 0x2f
(11022874900) Reading register [7] = 0x2f
(11022875000) Writing register [7] with 0x2f
(11022949900) Reading register [7] = 0x2f
(11022950000) Writing register [7] with 0x3f
(11023024900) Reading register [7] = 0x2f
(11023025000) Writing register [7] with 0x2f
(11023099900) Reading register [7] = 0x2f
(11023100000) Writing register [7] with 0x6f
(11023174900) Reading register [7] = 0x2f
(11023175000) Writing register [7] with 0xaf
(11023249900) Reading register [8] = 0x0
(11023250000) Writing register [8] with 0x1
(11023324900) Reading register [8] = 0x0
(11023325000) Writing register [8] with 0x2
(11023399900) Reading register [8] = 0x0
(11023400000) Writing register [8] with 0x4
(11023474900) Reading register [8] = 0x0
(11023475000) Writing register [8] with 0x8
(11023549900) Reading register [8] = 0x0
(11023550000) Writing register [8] with 0x10
(11023624900) Reading register [8] = 0x0
(11023625000) Writing register [8] with 0x20
(11023699900) Reading register [8] = 0x0
(11023700000) Writing register [8] with 0x40
(11023774900) Reading register [8] = 0x0
(11023775000) Writing register [8] with 0x80
(11023849900) Reading register [9] = 0x0
(11023850000) Writing register [9] with 0x1
(11023924900) Reading register [9] = 0x0
(11023925000) Writing register [9] with 0x2
(11023999900) Reading register [9] = 0x0
(11024000000) Writing register [9] with 0x4
(11024074900) Reading register [9] = 0x0
(11024075000) Writing register [9] with 0x8
(11024149900) Reading register [9] = 0x0
(11024150000) Writing register [9] with 0x10
(11024224900) Reading register [9] = 0x0
(11024225000) Writing register [9] with 0x20
(11024299900) Reading register [9] = 0x0
(11024300000) Writing register [9] with 0x40
(11024374900) Reading register [9] = 0x0
(11024375000) Writing register [9] with 0x80
(11024449900) Reading register [10] = 0x0
(11024450000) Writing register [10] with 0x1
(11024524900) Reading register [10] = 0x0
(11024525000) Writing register [10] with 0x2
(11024599900) Reading register [10] = 0x0
(11024600000) Writing register [10] with 0x4
(11024674900) Reading register [10] = 0x0
(11024675000) Writing register [10] with 0x8
(11024749900) Reading register [10] = 0x0
(11024750000) Writing register [10] with 0x10
(11024824900) Reading register [10] = 0x0
(11024825000) Writing register [10] with 0x20
(11024899900) Reading register [10] = 0x0
(11024900000) Writing register [10] with 0x40
(11024974900) Reading register [10] = 0x0
(11024975000) Writing register [10] with 0x80
(11025049900) Reading register [11] = 0x1c
(11025050000) Writing register [11] with 0x1d
(11025124900) Reading register [11] = 0x1c
(11025125000) Writing register [11] with 0x1e
(11025199900) Reading register [11] = 0x1c
(11025200000) Writing register [11] with 0x1c
(11025274900) Reading register [11] = 0x1c
(11025275000) Writing register [11] with 0x1c
(11025349900) Reading register [11] = 0x1c
(11025350000) Writing register [11] with 0x1c
(11025424900) Reading register [11] = 0x1c
(11025425000) Writing register [11] with 0x3c
(11025499900) Reading register [11] = 0x1c
(11025500000) Writing register [11] with 0x5c
(11025574900) Reading register [11] = 0x1c
(11025575000) Writing register [11] with 0x9c
(11025649900) Reading register [12] = 0xa2
(11025650000) Writing register [12] with 0xa3
(11025724900) Reading register [12] = 0x0
(11025725000) Writing register [12] with 0x2
(11025799900) Reading register [12] = 0x0
(11025800000) Writing register [12] with 0x4
(11025874900) Reading register [12] = 0x0
(11025875000) Writing register [12] with 0x8
(11025949900) Reading register [12] = 0x0
(11025950000) Writing register [12] with 0x10
(11026024900) Reading register [12] = 0x0
(11026025000) Writing register [12] with 0x20
(11026099900) Reading register [12] = 0x0
(11026100000) Writing register [12] with 0x40
(11026174900) Reading register [12] = 0x0
(11026175000) Writing register [12] with 0x80
(11026249900) Reading register [13] = 0x56
(11026250000) Writing register [13] with 0x57
(11026324900) Reading register [13] = 0x56
(11026325000) Writing register [13] with 0x56
(11026399900) Reading register [13] = 0x56
(11026400000) Writing register [13] with 0x56
(11026474900) Reading register [13] = 0x56
(11026475000) Writing register [13] with 0x5e
(11026549900) Reading register [13] = 0x56
(11026550000) Writing register [13] with 0x56
(11026624900) Reading register [13] = 0x56
(11026625000) Writing register [13] with 0x76
(11026699900) Reading register [13] = 0x56
(11026700000) Writing register [13] with 0x56
(11026774900) Reading register [13] = 0x56
(11026775000) Writing register [13] with 0xd6
(11026849900) Reading register [14] = 0x81
(11026850000) Writing register [14] with 0x81
(11026924900) Reading register [14] = 0x81
(11026925000) Writing register [14] with 0x83
(11026999900) Reading register [14] = 0x81
(11027000000) Writing register [14] with 0x85
(11027074900) Reading register [14] = 0x81
(11027075000) Writing register [14] with 0x89
(11027149900) Reading register [14] = 0x81
(11027150000) Writing register [14] with 0x91
(11027224900) Reading register [14] = 0x81
(11027225000) Writing register [14] with 0xa1
(11027299900) Reading register [14] = 0x81
(11027300000) Writing register [14] with 0xc1
(11027374900) Reading register [14] = 0x81
(11027375000) Writing register [14] with 0x81
(11027449900) Reading register [15] = 0xf3
(11027450000) Writing register [15] with 0xf3
(11027524900) Reading register [15] = 0xf3
(11027525000) Writing register [15] with 0xf3
(11027599900) Reading register [15] = 0xf3
(11027600000) Writing register [15] with 0xf7
(11027674900) Reading register [15] = 0xf3
(11027675000) Writing register [15] with 0xfb
(11027749900) Reading register [15] = 0xf3
(11027750000) Writing register [15] with 0xf3
(11027824900) Reading register [15] = 0xf3
(11027825000) Writing register [15] with 0xf3
(11027899900) Reading register [15] = 0xf3
(11027900000) Writing register [15] with 0xf3
(11027974900) Reading register [15] = 0xf3
(11027975000) Writing register [15] with 0xf3
(11028049900) Reading register [16] = 0xc5
(11028050000) Writing register [16] with 0xc5
(11028124900) Reading register [16] = 0xc5
(11028125000) Writing register [16] with 0xc7
(11028199900) Reading register [16] = 0xc5
(11028200000) Writing register [16] with 0xc5
(11028274900) Reading register [16] = 0xc5
(11028275000) Writing register [16] with 0xcd
(11028349900) Reading register [16] = 0xc5
(11028350000) Writing register [16] with 0xd5
(11028424900) Reading register [16] = 0xc5
(11028425000) Writing register [16] with 0xe5
(11028499900) Reading register [16] = 0xc5
(11028500000) Writing register [16] with 0xc5
(11028574900) Reading register [16] = 0xc5
(11028575000) Writing register [16] with 0xc5
(11028649900) Reading register [17] = 0xa6
(11028650000) Writing register [17] with 0xa7
(11028724900) Reading register [17] = 0xa6
(11028725000) Writing register [17] with 0xa6
(11028799900) Reading register [17] = 0xa6
(11028800000) Writing register [17] with 0xa6
(11028874900) Reading register [17] = 0xa6
(11028875000) Writing register [17] with 0xae
(11028949900) Reading register [17] = 0xa6
(11028950000) Writing register [17] with 0xb6
(11029024900) Reading register [17] = 0xa6
(11029025000) Writing register [17] with 0xa6
(11029099900) Reading register [17] = 0xa6
(11029100000) Writing register [17] with 0xe6
(11029174900) Reading register [17] = 0xa6
(11029175000) Writing register [17] with 0xa6
(11029249900) Reading register [18] = 0x0
(11029250000) Writing register [18] with 0x1
(11029324900) Reading register [18] = 0x0
(11029325000) Writing register [18] with 0x2
(11029399900) Reading register [18] = 0x0
(11029400000) Writing register [18] with 0x4
(11029474900) Reading register [18] = 0x0
(11029475000) Writing register [18] with 0x8
(11029549900) Reading register [18] = 0x0
(11029550000) Writing register [18] with 0x10
(11029624900) Reading register [18] = 0x0
(11029625000) Writing register [18] with 0x20
(11029699900) Reading register [18] = 0x0
(11029700000) Writing register [18] with 0x40
(11029774900) Reading register [18] = 0x0
(11029775000) Writing register [18] with 0x80
(11029849900) Reading register [19] = 0x5a
(11029850000) Writing register [19] with 0x5b
(11029924900) Reading register [19] = 0x5a
(11029925000) Writing register [19] with 0x5a
(11029999900) Reading register [19] = 0x5a
(11030000000) Writing register [19] with 0x5e
(11030074900) Reading register [19] = 0x5a
(11030075000) Writing register [19] with 0x5a
(11030149900) Reading register [19] = 0x5a
(11030150000) Writing register [19] with 0x5a
(11030224900) Reading register [19] = 0x5a
(11030225000) Writing register [19] with 0x7a
(11030299900) Reading register [19] = 0x5a
(11030300000) Writing register [19] with 0x5a
(11030374900) Reading register [19] = 0x5a
(11030375000) Writing register [19] with 0xda
(11030449900) Reading register [20] = 0xa8
(11030450000) Writing register [20] with 0xa9
(11030524900) Reading register [20] = 0xa8
(11030525000) Writing register [20] with 0xaa
(11030599900) Reading register [20] = 0xa8
(11030600000) Writing register [20] with 0xac
(11030674900) Reading register [20] = 0xa8
(11030675000) Writing register [20] with 0xa8
(11030749900) Reading register [20] = 0xa8
(11030750000) Writing register [20] with 0xb8
(11030824900) Reading register [20] = 0xa8
(11030825000) Writing register [20] with 0xa8
(11030899900) Reading register [20] = 0xa8
(11030900000) Writing register [20] with 0xe8
(11030974900) Reading register [20] = 0xa8
(11030975000) Writing register [20] with 0xa8
(11031049900) Reading register [21] = 0x28
(11031050000) Writing register [21] with 0x29
(11031124900) Reading register [21] = 0x28
(11031125000) Writing register [21] with 0x2a
(11031199900) Reading register [21] = 0x28
(11031200000) Writing register [21] with 0x2c
(11031274900) Reading register [21] = 0x28
(11031275000) Writing register [21] with 0x28
(11031349900) Reading register [21] = 0x28
(11031350000) Writing register [21] with 0x38
(11031424900) Reading register [21] = 0x28
(11031425000) Writing register [21] with 0x28
(11031499900) Reading register [21] = 0x28
(11031500000) Writing register [21] with 0x68
(11031574900) Reading register [21] = 0x28
(11031575000) Writing register [21] with 0xa8
(11031649900) Reading register [22] = 0x12
(11031650000) Writing register [22] with 0x13
(11031724900) Reading register [22] = 0x12
(11031725000) Writing register [22] with 0x12
(11031799900) Reading register [22] = 0x12
(11031800000) Writing register [22] with 0x16
(11031874900) Reading register [22] = 0x12
(11031875000) Writing register [22] with 0x1a
(11031949900) Reading register [22] = 0x12
(11031950000) Writing register [22] with 0x12
(11032024900) Reading register [22] = 0x12
(11032025000) Writing register [22] with 0x32
(11032099900) Reading register [22] = 0x12
(11032100000) Writing register [22] with 0x52
(11032174900) Reading register [22] = 0x12
(11032175000) Writing register [22] with 0x92
(11032249900) Reading register [23] = 0x34
(11032250000) Writing register [23] with 0x35
(11032324900) Reading register [23] = 0x34
(11032325000) Writing register [23] with 0x36
(11032399900) Reading register [23] = 0x34
(11032400000) Writing register [23] with 0x34
(11032474900) Reading register [23] = 0x34
(11032475000) Writing register [23] with 0x3c
(11032549900) Reading register [23] = 0x34
(11032550000) Writing register [23] with 0x34
(11032624900) Reading register [23] = 0x34
(11032625000) Writing register [23] with 0x34
(11032699900) Reading register [23] = 0x34
(11032700000) Writing register [23] with 0x74
(11032774900) Reading register [23] = 0x34
(11032775000) Writing register [23] with 0xb4
(11032849900) Reading register [24] = 0x56
(11032850000) Writing register [24] with 0x57
(11032924900) Reading register [24] = 0x56
(11032925000) Writing register [24] with 0x56
(11032999900) Reading register [24] = 0x56
(11033000000) Writing register [24] with 0x56
(11033074900) Reading register [24] = 0x56
(11033075000) Writing register [24] with 0x5e
(11033149900) Reading register [24] = 0x56
(11033150000) Writing register [24] with 0x56
(11033224900) Reading register [24] = 0x56
(11033225000) Writing register [24] with 0x76
(11033299900) Reading register [24] = 0x56
(11033300000) Writing register [24] with 0x56
(11033374900) Reading register [24] = 0x56
(11033375000) Writing register [24] with 0xd6
(11033449900) Reading register [25] = 0x78
(11033450000) Writing register [25] with 0x79
(11033524900) Reading register [25] = 0x78
(11033525000) Writing register [25] with 0x7a
(11033599900) Reading register [25] = 0x78
(11033600000) Writing register [25] with 0x7c
(11033674900) Reading register [25] = 0x78
(11033675000) Writing register [25] with 0x78
(11033749900) Reading register [25] = 0x78
(11033750000) Writing register [25] with 0x78
(11033824900) Reading register [25] = 0x78
(11033825000) Writing register [25] with 0x78
(11033899900) Reading register [25] = 0x78
(11033900000) Writing register [25] with 0x78
(11033974900) Reading register [25] = 0x78
(11033975000) Writing register [25] with 0xf8
(11034049900) Reading register [26] = 0x9a
(11034050000) Writing register [26] with 0x9b
(11034124900) Reading register [26] = 0x9a
(11034125000) Writing register [26] with 0x9a
(11034199900) Reading register [26] = 0x9a
(11034200000) Writing register [26] with 0x9e
(11034274900) Reading register [26] = 0x9a
(11034275000) Writing register [26] with 0x9a
(11034349900) Reading register [26] = 0x9a
(11034350000) Writing register [26] with 0x9a
(11034424900) Reading register [26] = 0x9a
(11034425000) Writing register [26] with 0xba
(11034499900) Reading register [26] = 0x9a
(11034500000) Writing register [26] with 0xda
(11034574900) Reading register [26] = 0x9a
(11034575000) Writing register [26] with 0x9a
(11034649900) Reading register [27] = 0xbc
(11034650000) Writing register [27] with 0xbd
(11034724900) Reading register [27] = 0xbc
(11034725000) Writing register [27] with 0xbe
(11034799900) Reading register [27] = 0xbc
(11034800000) Writing register [27] with 0xbc
(11034874900) Reading register [27] = 0xbc
(11034875000) Writing register [27] with 0xbc
(11034949900) Reading register [27] = 0xbc
(11034950000) Writing register [27] with 0xbc
(11035024900) Reading register [27] = 0xbc
(11035025000) Writing register [27] with 0xbc
(11035099900) Reading register [27] = 0xbc
(11035100000) Writing register [27] with 0xfc
(11035174900) Reading register [27] = 0xbc
(11035175000) Writing register [27] with 0xbc
(11035249900) Reading register [28] = 0xde
(11035250000) Writing register [28] with 0xdf
(11035324900) Reading register [28] = 0xde
(11035325000) Writing register [28] with 0xde
(11035399900) Reading register [28] = 0xde
(11035400000) Writing register [28] with 0xde
(11035474900) Reading register [28] = 0xde
(11035475000) Writing register [28] with 0xde
(11035549900) Reading register [28] = 0xde
(11035550000) Writing register [28] with 0xde
(11035624900) Reading register [28] = 0xde
(11035625000) Writing register [28] with 0xfe
(11035699900) Reading register [28] = 0xde
(11035700000) Writing register [28] with 0xde
(11035774900) Reading register [28] = 0xde
(11035775000) Writing register [28] with 0xde
(11035849900) Reading register [29] = 0x0
(11035850000) Writing register [29] with 0x1
(11035924900) Reading register [29] = 0x0
(11035925000) Writing register [29] with 0x2
(11035999900) Reading register [29] = 0x0
(11036000000) Writing register [29] with 0x4
(11036074900) Reading register [29] = 0x0
(11036075000) Writing register [29] with 0x8
(11036149900) Reading register [29] = 0x0
(11036150000) Writing register [29] with 0x10
(11036224900) Reading register [29] = 0x0
(11036225000) Writing register [29] with 0x20
(11036299900) Reading register [29] = 0x0
(11036300000) Writing register [29] with 0x40
(11036374900) Reading register [29] = 0x0
(11036375000) Writing register [29] with 0x80
(11036449900) Reading register [30] = 0x0
(11036450000) Writing register [30] with 0x1
(11036524900) Reading register [30] = 0x0
(11036525000) Writing register [30] with 0x2
(11036599900) Reading register [30] = 0x0
(11036600000) Writing register [30] with 0x4
(11036674900) Reading register [30] = 0x0
(11036675000) Writing register [30] with 0x8
(11036749900) Reading register [30] = 0x0
(11036750000) Writing register [30] with 0x10
(11036824900) Reading register [30] = 0x0
(11036825000) Writing register [30] with 0x20
(11036899900) Reading register [30] = 0x0
(11036900000) Writing register [30] with 0x40
(11036974900) Reading register [30] = 0x0
(11036975000) Writing register [30] with 0x80
(11037049900) Reading register [31] = 0x80
(11037050000) Writing register [31] with 0x81
(11037124900) Reading register [31] = 0x81
(11037125000) Writing register [31] with 0x83
(11037199900) Reading register [31] = 0x83
(11037200000) Writing register [31] with 0x87
(11037274900) Reading register [31] = 0x87
(11037275000) Writing register [31] with 0x8f
(11037349900) Reading register [31] = 0x87
(11037350000) Writing register [31] with 0x97
(11037424900) Reading register [31] = 0x87
(11037425000) Writing register [31] with 0xa7
(11037499900) Reading register [31] = 0x87
(11037500000) Writing register [31] with 0xc7
(11037574900) Reading register [31] = 0x87
(11037575000) Writing register [31] with 0x87
(11037649900) Reading register [32] = 0x0
(11037650000) Writing register [32] with 0x1
(11037724900) Reading register [32] = 0x0
(11037725000) Writing register [32] with 0x2
(11037799900) Reading register [32] = 0x0
(11037800000) Writing register [32] with 0x4
(11037874900) Reading register [32] = 0x0
(11037875000) Writing register [32] with 0x8
(11037949900) Reading register [32] = 0x0
(11037950000) Writing register [32] with 0x10
(11038024900) Reading register [32] = 0x0
(11038025000) Writing register [32] with 0x20
(11038099900) Reading register [32] = 0x0
(11038100000) Writing register [32] with 0x40
(11038174900) Reading register [32] = 0x0
(11038175000) Writing register [32] with 0x80
(11038249900) Reading register [33] = 0x0
(11038250000) Writing register [33] with 0x1
(11038324900) Reading register [33] = 0x0
(11038325000) Writing register [33] with 0x2
(11038399900) Reading register [33] = 0x0
(11038400000) Writing register [33] with 0x4
(11038474900) Reading register [33] = 0x0
(11038475000) Writing register [33] with 0x8
(11038549900) Reading register [33] = 0x0
(11038550000) Writing register [33] with 0x10
(11038624900) Reading register [33] = 0x0
(11038625000) Writing register [33] with 0x20
(11038699900) Reading register [33] = 0x0
(11038700000) Writing register [33] with 0x40
(11038774900) Reading register [33] = 0x0
(11038775000) Writing register [33] with 0x80
(11038849900) Reading register [34] = 0x54
(11038850000) Writing register [34] with 0x55
(11038924900) Reading register [34] = 0x54
(11038925000) Writing register [34] with 0x56
(11038999900) Reading register [34] = 0x54
(11039000000) Writing register [34] with 0x54
(11039074900) Reading register [34] = 0x54
(11039075000) Writing register [34] with 0x5c
(11039149900) Reading register [34] = 0x54
(11039150000) Writing register [34] with 0x54
(11039224900) Reading register [34] = 0x54
(11039225000) Writing register [34] with 0x74
(11039299900) Reading register [34] = 0x54
(11039300000) Writing register [34] with 0x54
(11039374900) Reading register [34] = 0x54
(11039375000) Writing register [34] with 0xd4
(11039449900) Reading register [35] = 0x0
(11039450000) Writing register [35] with 0x1
(11039524900) Reading register [35] = 0x0
(11039525000) Writing register [35] with 0x2
(11039599900) Reading register [35] = 0x0
(11039600000) Writing register [35] with 0x4
(11039674900) Reading register [35] = 0x0
(11039675000) Writing register [35] with 0x8
(11039749900) Reading register [35] = 0x0
(11039750000) Writing register [35] with 0x10
(11039824900) Reading register [35] = 0x0
(11039825000) Writing register [35] with 0x20
(11039899900) Reading register [35] = 0x0
(11039900000) Writing register [35] with 0x40
(11039974900) Reading register [35] = 0x0
(11039975000) Writing register [35] with 0x80
(11040049900) Reading register [36] = 0xff
(11040050000) Writing register [36] with 0xff
(11040124900) Reading register [36] = 0xff
(11040125000) Writing register [36] with 0xff
(11040199900) Reading register [36] = 0xff
(11040200000) Writing register [36] with 0xff
(11040274900) Reading register [36] = 0xff
(11040275000) Writing register [36] with 0xff
(11040349900) Reading register [36] = 0xff
(11040350000) Writing register [36] with 0xff
(11040424900) Reading register [36] = 0xff
(11040425000) Writing register [36] with 0xff
(11040499900) Reading register [36] = 0xff
(11040500000) Writing register [36] with 0xff
(11040574900) Reading register [36] = 0xff
(11040575000) Writing register [36] with 0xff
(11040649900) Reading register [37] = 0x0
(11040650000) Writing register [37] with 0x1
(11040724900) Reading register [37] = 0x0
(11040725000) Writing register [37] with 0x2
(11040799900) Reading register [37] = 0x0
(11040800000) Writing register [37] with 0x4
(11040874900) Reading register [37] = 0x0
(11040875000) Writing register [37] with 0x8
(11040949900) Reading register [37] = 0x0
(11040950000) Writing register [37] with 0x10
(11041024900) Reading register [37] = 0x0
(11041025000) Writing register [37] with 0x20
(11041099900) Reading register [37] = 0x0
(11041100000) Writing register [37] with 0x40
(11041174900) Reading register [37] = 0x0
(11041175000) Writing register [37] with 0x80
(11041249900) Reading register [38] = 0x43
(11041250000) Writing register [38] with 0x43
(11041324900) Reading register [38] = 0x43
(11041325000) Writing register [38] with 0x43
(11041399900) Reading register [38] = 0x43
(11041400000) Writing register [38] with 0x47
(11041474900) Reading register [38] = 0x43
(11041475000) Writing register [38] with 0x4b
(11041549900) Reading register [38] = 0x43
(11041550000) Writing register [38] with 0x53
(11041624900) Reading register [38] = 0x43
(11041625000) Writing register [38] with 0x63
(11041699900) Reading register [38] = 0x43
(11041700000) Writing register [38] with 0x43
(11041774900) Reading register [38] = 0x43
(11041775000) Writing register [38] with 0xc3
(11041849900) Reading register [39] = 0x2f
(11041850000) Writing register [39] with 0x2f
(11041924900) Reading register [39] = 0x2f
(11041925000) Writing register [39] with 0x2f
(11041999900) Reading register [39] = 0x2f
(11042000000) Writing register [39] with 0x2f
(11042074900) Reading register [39] = 0x2f
(11042075000) Writing register [39] with 0x2f
(11042149900) Reading register [39] = 0x2f
(11042150000) Writing register [39] with 0x3f
(11042224900) Reading register [39] = 0x2f
(11042225000) Writing register [39] with 0x2f
(11042299900) Reading register [39] = 0x2f
(11042300000) Writing register [39] with 0x6f
(11042374900) Reading register [39] = 0x2f
(11042375000) Writing register [39] with 0xaf
(11042449900) Reading register [40] = 0x0
(11042450000) Writing register [40] with 0x1
(11042524900) Reading register [40] = 0x0
(11042525000) Writing register [40] with 0x2
(11042599900) Reading register [40] = 0x0
(11042600000) Writing register [40] with 0x4
(11042674900) Reading register [40] = 0x0
(11042675000) Writing register [40] with 0x8
(11042749900) Reading register [40] = 0x0
(11042750000) Writing register [40] with 0x10
(11042824900) Reading register [40] = 0x0
(11042825000) Writing register [40] with 0x20
(11042899900) Reading register [40] = 0x0
(11042900000) Writing register [40] with 0x40
(11042974900) Reading register [40] = 0x0
(11042975000) Writing register [40] with 0x80
(11043049900) Reading register [41] = 0x0
(11043050000) Writing register [41] with 0x1
(11043124900) Reading register [41] = 0x0
(11043125000) Writing register [41] with 0x2
(11043199900) Reading register [41] = 0x0
(11043200000) Writing register [41] with 0x4
(11043274900) Reading register [41] = 0x0
(11043275000) Writing register [41] with 0x8
(11043349900) Reading register [41] = 0x0
(11043350000) Writing register [41] with 0x10
(11043424900) Reading register [41] = 0x0
(11043425000) Writing register [41] with 0x20
(11043499900) Reading register [41] = 0x0
(11043500000) Writing register [41] with 0x40
(11043574900) Reading register [41] = 0x0
(11043575000) Writing register [41] with 0x80
(11043649900) Reading register [42] = 0x0
(11043650000) Writing register [42] with 0x1
(11043724900) Reading register [42] = 0x0
(11043725000) Writing register [42] with 0x2
(11043799900) Reading register [42] = 0x0
(11043800000) Writing register [42] with 0x4
(11043874900) Reading register [42] = 0x0
(11043875000) Writing register [42] with 0x8
(11043949900) Reading register [42] = 0x0
(11043950000) Writing register [42] with 0x10
(11044024900) Reading register [42] = 0x0
(11044025000) Writing register [42] with 0x20
(11044099900) Reading register [42] = 0x0
(11044100000) Writing register [42] with 0x40
(11044174900) Reading register [42] = 0x0
(11044175000) Writing register [42] with 0x80
(11044249900) Reading register [43] = 0x1c
(11044250000) Writing register [43] with 0x1d
(11044324900) Reading register [43] = 0x1c
(11044325000) Writing register [43] with 0x1e
(11044399900) Reading register [43] = 0x1c
(11044400000) Writing register [43] with 0x1c
(11044474900) Reading register [43] = 0x1c
(11044475000) Writing register [43] with 0x1c
(11044549900) Reading register [43] = 0x1c
(11044550000) Writing register [43] with 0x1c
(11044624900) Reading register [43] = 0x1c
(11044625000) Writing register [43] with 0x3c
(11044699900) Reading register [43] = 0x1c
(11044700000) Writing register [43] with 0x5c
(11044774900) Reading register [43] = 0x1c
(11044775000) Writing register [43] with 0x9c
(11044849900) Reading register [44] = 0x0
(11044850000) Writing register [44] with 0x1
(11044924900) Reading register [44] = 0x0
(11044925000) Writing register [44] with 0x2
(11044999900) Reading register [44] = 0x0
(11045000000) Writing register [44] with 0x4
(11045074900) Reading register [44] = 0x0
(11045075000) Writing register [44] with 0x8
(11045149900) Reading register [44] = 0x0
(11045150000) Writing register [44] with 0x10
(11045224900) Reading register [44] = 0x0
(11045225000) Writing register [44] with 0x20
(11045299900) Reading register [44] = 0x0
(11045300000) Writing register [44] with 0x40
(11045374900) Reading register [44] = 0x0
(11045375000) Writing register [44] with 0x80
(11045449900) Reading register [45] = 0x56
(11045450000) Writing register [45] with 0x57
(11045524900) Reading register [45] = 0x56
(11045525000) Writing register [45] with 0x56
(11045599900) Reading register [45] = 0x56
(11045600000) Writing register [45] with 0x56
(11045674900) Reading register [45] = 0x56
(11045675000) Writing register [45] with 0x5e
(11045749900) Reading register [45] = 0x56
(11045750000) Writing register [45] with 0x56
(11045824900) Reading register [45] = 0x56
(11045825000) Writing register [45] with 0x76
(11045899900) Reading register [45] = 0x56
(11045900000) Writing register [45] with 0x56
(11045974900) Reading register [45] = 0x56
(11045975000) Writing register [45] with 0xd6
(11046049900) Reading register [46] = 0x81
(11046050000) Writing register [46] with 0x81
(11046124900) Reading register [46] = 0x81
(11046125000) Writing register [46] with 0x83
(11046199900) Reading register [46] = 0x81
(11046200000) Writing register [46] with 0x85
(11046274900) Reading register [46] = 0x81
(11046275000) Writing register [46] with 0x89
(11046349900) Reading register [46] = 0x81
(11046350000) Writing register [46] with 0x91
(11046424900) Reading register [46] = 0x81
(11046425000) Writing register [46] with 0xa1
(11046499900) Reading register [46] = 0x81
(11046500000) Writing register [46] with 0xc1
(11046574900) Reading register [46] = 0x81
(11046575000) Writing register [46] with 0x81
(11046649900) Reading register [47] = 0xf3
(11046650000) Writing register [47] with 0xf3
(11046724900) Reading register [47] = 0xf3
(11046725000) Writing register [47] with 0xf3
(11046799900) Reading register [47] = 0xf3
(11046800000) Writing register [47] with 0xf7
(11046874900) Reading register [47] = 0xf3
(11046875000) Writing register [47] with 0xfb
(11046949900) Reading register [47] = 0xf3
(11046950000) Writing register [47] with 0xf3
(11047024900) Reading register [47] = 0xf3
(11047025000) Writing register [47] with 0xf3
(11047099900) Reading register [47] = 0xf3
(11047100000) Writing register [47] with 0xf3
(11047174900) Reading register [47] = 0xf3
(11047175000) Writing register [47] with 0xf3
(11047249900) Reading register [48] = 0xa6
(11047250000) Writing register [48] with 0xa7
(11047324900) Reading register [48] = 0xa6
(11047325000) Writing register [48] with 0xa6
(11047399900) Reading register [48] = 0xa6
(11047400000) Writing register [48] with 0xa6
(11047474900) Reading register [48] = 0xa6
(11047475000) Writing register [48] with 0xae
(11047549900) Reading register [48] = 0xa6
(11047550000) Writing register [48] with 0xb6
(11047624900) Reading register [48] = 0xa6
(11047625000) Writing register [48] with 0xa6
(11047699900) Reading register [48] = 0xa6
(11047700000) Writing register [48] with 0xe6
(11047774900) Reading register [48] = 0xa6
(11047775000) Writing register [48] with 0xa6
(11047849900) Reading register [49] = 0x0
(11047850000) Writing register [49] with 0x1
(11047924900) Reading register [49] = 0x0
(11047925000) Writing register [49] with 0x2
(11047999900) Reading register [49] = 0x0
(11048000000) Writing register [49] with 0x4
(11048074900) Reading register [49] = 0x0
(11048075000) Writing register [49] with 0x8
(11048149900) Reading register [49] = 0x0
(11048150000) Writing register [49] with 0x10
(11048224900) Reading register [49] = 0x0
(11048225000) Writing register [49] with 0x20
(11048299900) Reading register [49] = 0x0
(11048300000) Writing register [49] with 0x40
(11048374900) Reading register [49] = 0x0
(11048375000) Writing register [49] with 0x80
(11048449900) Reading register [50] = 0x5a
(11048450000) Writing register [50] with 0x5b
(11048524900) Reading register [50] = 0x5a
(11048525000) Writing register [50] with 0x5a
(11048599900) Reading register [50] = 0x5a
(11048600000) Writing register [50] with 0x5e
(11048674900) Reading register [50] = 0x5a
(11048675000) Writing register [50] with 0x5a
(11048749900) Reading register [50] = 0x5a
(11048750000) Writing register [50] with 0x5a
(11048824900) Reading register [50] = 0x5a
(11048825000) Writing register [50] with 0x7a
(11048899900) Reading register [50] = 0x5a
(11048900000) Writing register [50] with 0x5a
(11048974900) Reading register [50] = 0x5a
(11048975000) Writing register [50] with 0xda
(11049049900) Reading register [51] = 0xac
(11049050000) Writing register [51] with 0xad
(11049124900) Reading register [51] = 0xac
(11049125000) Writing register [51] with 0xae
(11049199900) Reading register [51] = 0xac
(11049200000) Writing register [51] with 0xac
(11049274900) Reading register [51] = 0xac
(11049275000) Writing register [51] with 0xac
(11049349900) Reading register [51] = 0xac
(11049350000) Writing register [51] with 0xbc
(11049424900) Reading register [51] = 0xac
(11049425000) Writing register [51] with 0xac
(11049499900) Reading register [51] = 0xac
(11049500000) Writing register [51] with 0xec
(11049574900) Reading register [51] = 0xac
(11049575000) Writing register [51] with 0xac
(11049649900) Reading register [52] = 0x0
(11049650000) Writing register [52] with 0x1
(11049724900) Reading register [52] = 0x0
(11049725000) Writing register [52] with 0x2
(11049799900) Reading register [52] = 0x0
(11049800000) Writing register [52] with 0x4
(11049874900) Reading register [52] = 0x0
(11049875000) Writing register [52] with 0x8
(11049949900) Reading register [52] = 0x0
(11049950000) Writing register [52] with 0x10
(11050024900) Reading register [52] = 0x0
(11050025000) Writing register [52] with 0x20
(11050099900) Reading register [52] = 0x0
(11050100000) Writing register [52] with 0x40
(11050174900) Reading register [52] = 0x0
(11050175000) Writing register [52] with 0x80
(11050249900) Reading register [53] = 0x0
(11050250000) Writing register [53] with 0x1
(11050324900) Reading register [53] = 0x0
(11050325000) Writing register [53] with 0x2
(11050399900) Reading register [53] = 0x0
(11050400000) Writing register [53] with 0x4
(11050474900) Reading register [53] = 0x0
(11050475000) Writing register [53] with 0x8
(11050549900) Reading register [53] = 0x0
(11050550000) Writing register [53] with 0x10
(11050624900) Reading register [53] = 0x0
(11050625000) Writing register [53] with 0x20
(11050699900) Reading register [53] = 0x0
(11050700000) Writing register [53] with 0x40
(11050774900) Reading register [53] = 0x0
(11050775000) Writing register [53] with 0x80
(11050849900) Reading register [54] = 0x0
(11050850000) Writing register [54] with 0x1
(11050924900) Reading register [54] = 0x0
(11050925000) Writing register [54] with 0x2
(11050999900) Reading register [54] = 0x0
(11051000000) Writing register [54] with 0x4
(11051074900) Reading register [54] = 0x0
(11051075000) Writing register [54] with 0x8
(11051149900) Reading register [54] = 0x0
(11051150000) Writing register [54] with 0x10
(11051224900) Reading register [54] = 0x0
(11051225000) Writing register [54] with 0x20
(11051299900) Reading register [54] = 0x0
(11051300000) Writing register [54] with 0x40
(11051374900) Reading register [54] = 0x0
(11051375000) Writing register [54] with 0x80
(11051449900) Reading register [55] = 0x0
(11051450000) Writing register [55] with 0x1
(11051524900) Reading register [55] = 0x0
(11051525000) Writing register [55] with 0x2
(11051599900) Reading register [55] = 0x0
(11051600000) Writing register [55] with 0x4
(11051674900) Reading register [55] = 0x0
(11051675000) Writing register [55] with 0x8
(11051749900) Reading register [55] = 0x0
(11051750000) Writing register [55] with 0x10
(11051824900) Reading register [55] = 0x0
(11051825000) Writing register [55] with 0x20
(11051899900) Reading register [55] = 0x0
(11051900000) Writing register [55] with 0x40
(11051974900) Reading register [55] = 0x0
(11051975000) Writing register [55] with 0x80
(11052049900) Reading register [56] = 0x0
(11052050000) Writing register [56] with 0x1
(11052124900) Reading register [56] = 0x0
(11052125000) Writing register [56] with 0x2
(11052199900) Reading register [56] = 0x0
(11052200000) Writing register [56] with 0x4
(11052274900) Reading register [56] = 0x0
(11052275000) Writing register [56] with 0x8
(11052349900) Reading register [56] = 0x0
(11052350000) Writing register [56] with 0x10
(11052424900) Reading register [56] = 0x0
(11052425000) Writing register [56] with 0x20
(11052499900) Reading register [56] = 0x0
(11052500000) Writing register [56] with 0x40
(11052574900) Reading register [56] = 0x0
(11052575000) Writing register [56] with 0x80
(11052649900) Reading register [57] = 0x0
(11052650000) Writing register [57] with 0x1
(11052724900) Reading register [57] = 0x0
(11052725000) Writing register [57] with 0x2
(11052799900) Reading register [57] = 0x0
(11052800000) Writing register [57] with 0x4
(11052874900) Reading register [57] = 0x0
(11052875000) Writing register [57] with 0x8
(11052949900) Reading register [57] = 0x0
(11052950000) Writing register [57] with 0x10
(11053024900) Reading register [57] = 0x0
(11053025000) Writing register [57] with 0x20
(11053099900) Reading register [57] = 0x0
(11053100000) Writing register [57] with 0x40
(11053174900) Reading register [57] = 0x0
(11053175000) Writing register [57] with 0x80
(11053249900) Reading register [58] = 0x0
(11053250000) Writing register [58] with 0x1
(11053324900) Reading register [58] = 0x0
(11053325000) Writing register [58] with 0x2
(11053399900) Reading register [58] = 0x0
(11053400000) Writing register [58] with 0x4
(11053474900) Reading register [58] = 0x0
(11053475000) Writing register [58] with 0x8
(11053549900) Reading register [58] = 0x0
(11053550000) Writing register [58] with 0x10
(11053624900) Reading register [58] = 0x0
(11053625000) Writing register [58] with 0x20
(11053699900) Reading register [58] = 0x0
(11053700000) Writing register [58] with 0x40
(11053774900) Reading register [58] = 0x0
(11053775000) Writing register [58] with 0x80
(11053849900) Reading register [59] = 0x0
(11053850000) Writing register [59] with 0x1
(11053924900) Reading register [59] = 0x0
(11053925000) Writing register [59] with 0x2
(11053999900) Reading register [59] = 0x0
(11054000000) Writing register [59] with 0x4
(11054074900) Reading register [59] = 0x0
(11054075000) Writing register [59] with 0x8
(11054149900) Reading register [59] = 0x0
(11054150000) Writing register [59] with 0x10
(11054224900) Reading register [59] = 0x0
(11054225000) Writing register [59] with 0x20
(11054299900) Reading register [59] = 0x0
(11054300000) Writing register [59] with 0x40
(11054374900) Reading register [59] = 0x0
(11054375000) Writing register [59] with 0x80
(11054449900) Reading register [60] = 0x0
(11054450000) Writing register [60] with 0x1
(11054524900) Reading register [60] = 0x0
(11054525000) Writing register [60] with 0x2
(11054599900) Reading register [60] = 0x0
(11054600000) Writing register [60] with 0x4
(11054674900) Reading register [60] = 0x0
(11054675000) Writing register [60] with 0x8
(11054749900) Reading register [60] = 0x0
(11054750000) Writing register [60] with 0x10
(11054824900) Reading register [60] = 0x0
(11054825000) Writing register [60] with 0x20
(11054899900) Reading register [60] = 0x0
(11054900000) Writing register [60] with 0x40
(11054974900) Reading register [60] = 0x0
(11054975000) Writing register [60] with 0x80
(11055049900) Reading register [61] = 0x0
(11055050000) Writing register [61] with 0x1
(11055124900) Reading register [61] = 0x0
(11055125000) Writing register [61] with 0x2
(11055199900) Reading register [61] = 0x0
(11055200000) Writing register [61] with 0x4
(11055274900) Reading register [61] = 0x0
(11055275000) Writing register [61] with 0x8
(11055349900) Reading register [61] = 0x0
(11055350000) Writing register [61] with 0x10
(11055424900) Reading register [61] = 0x0
(11055425000) Writing register [61] with 0x20
(11055499900) Reading register [61] = 0x0
(11055500000) Writing register [61] with 0x40
(11055574900) Reading register [61] = 0x0
(11055575000) Writing register [61] with 0x80
(11055649900) Reading register [62] = 0x0
(11055650000) Writing register [62] with 0x1
(11055724900) Reading register [62] = 0x0
(11055725000) Writing register [62] with 0x2
(11055799900) Reading register [62] = 0x0
(11055800000) Writing register [62] with 0x4
(11055874900) Reading register [62] = 0x0
(11055875000) Writing register [62] with 0x8
(11055949900) Reading register [62] = 0x0
(11055950000) Writing register [62] with 0x10
(11056024900) Reading register [62] = 0x0
(11056025000) Writing register [62] with 0x20
(11056099900) Reading register [62] = 0x0
(11056100000) Writing register [62] with 0x40
(11056174900) Reading register [62] = 0x0
(11056175000) Writing register [62] with 0x80
(11056249900) Reading register [63] = 0x87
(11056250000) Writing register [63] with 0x87
(11056324900) Reading register [63] = 0x87
(11056325000) Writing register [63] with 0x87
(11056399900) Reading register [63] = 0x87
(11056400000) Writing register [63] with 0x87
(11056474900) Reading register [63] = 0x87
(11056475000) Writing register [63] with 0x8f
(11056549900) Reading register [63] = 0x87
(11056550000) Writing register [63] with 0x97
(11056624900) Reading register [63] = 0x87
(11056625000) Writing register [63] with 0xa7
(11056699900) Reading register [63] = 0x87
(11056700000) Writing register [63] with 0xc7
(11056774900) Reading register [63] = 0x87
(11056775000) Writing register [63] with 0x87
(11056849900) Reading register [64] = 0x0
(11056850000) Writing register [64] with 0x1
(11056924900) Reading register [64] = 0x0
(11056925000) Writing register [64] with 0x2
(11056999900) Reading register [64] = 0x0
(11057000000) Writing register [64] with 0x4
(11057074900) Reading register [64] = 0x0
(11057075000) Writing register [64] with 0x8
(11057149900) Reading register [64] = 0x0
(11057150000) Writing register [64] with 0x10
(11057224900) Reading register [64] = 0x0
(11057225000) Writing register [64] with 0x20
(11057299900) Reading register [64] = 0x0
(11057300000) Writing register [64] with 0x40
(11057374900) Reading register [64] = 0x0
(11057375000) Writing register [64] with 0x80
(11057449900) Reading register [65] = 0x0
(11057450000) Writing register [65] with 0x1
(11057524900) Reading register [65] = 0x0
(11057525000) Writing register [65] with 0x2
(11057599900) Reading register [65] = 0x0
(11057600000) Writing register [65] with 0x4
(11057674900) Reading register [65] = 0x0
(11057675000) Writing register [65] with 0x8
(11057749900) Reading register [65] = 0x0
(11057750000) Writing register [65] with 0x10
(11057824900) Reading register [65] = 0x0
(11057825000) Writing register [65] with 0x20
(11057899900) Reading register [65] = 0x0
(11057900000) Writing register [65] with 0x40
(11057974900) Reading register [65] = 0x0
(11057975000) Writing register [65] with 0x80
(11058049900) Reading register [66] = 0x54
(11058050000) Writing register [66] with 0x55
(11058124900) Reading register [66] = 0x54
(11058125000) Writing register [66] with 0x56
(11058199900) Reading register [66] = 0x54
(11058200000) Writing register [66] with 0x54
(11058274900) Reading register [66] = 0x54
(11058275000) Writing register [66] with 0x5c
(11058349900) Reading register [66] = 0x54
(11058350000) Writing register [66] with 0x54
(11058424900) Reading register [66] = 0x54
(11058425000) Writing register [66] with 0x74
(11058499900) Reading register [66] = 0x54
(11058500000) Writing register [66] with 0x54
(11058574900) Reading register [66] = 0x54
(11058575000) Writing register [66] with 0xd4
(11058649900) Reading register [67] = 0x0
(11058650000) Writing register [67] with 0x1
(11058724900) Reading register [67] = 0x0
(11058725000) Writing register [67] with 0x2
(11058799900) Reading register [67] = 0x0
(11058800000) Writing register [67] with 0x4
(11058874900) Reading register [67] = 0x0
(11058875000) Writing register [67] with 0x8
(11058949900) Reading register [67] = 0x0
(11058950000) Writing register [67] with 0x10
(11059024900) Reading register [67] = 0x0
(11059025000) Writing register [67] with 0x20
(11059099900) Reading register [67] = 0x0
(11059100000) Writing register [67] with 0x40
(11059174900) Reading register [67] = 0x0
(11059175000) Writing register [67] with 0x80
(11059249900) Reading register [68] = 0xff
(11059250000) Writing register [68] with 0xff
(11059324900) Reading register [68] = 0xff
(11059325000) Writing register [68] with 0xff
(11059399900) Reading register [68] = 0xff
(11059400000) Writing register [68] with 0xff
(11059474900) Reading register [68] = 0xff
(11059475000) Writing register [68] with 0xff
(11059549900) Reading register [68] = 0xff
(11059550000) Writing register [68] with 0xff
(11059624900) Reading register [68] = 0xff
(11059625000) Writing register [68] with 0xff
(11059699900) Reading register [68] = 0xff
(11059700000) Writing register [68] with 0xff
(11059774900) Reading register [68] = 0xff
(11059775000) Writing register [68] with 0xff
(11059849900) Reading register [69] = 0x0
(11059850000) Writing register [69] with 0x1
(11059924900) Reading register [69] = 0x0
(11059925000) Writing register [69] with 0x2
(11059999900) Reading register [69] = 0x0
(11060000000) Writing register [69] with 0x4
(11060074900) Reading register [69] = 0x0
(11060075000) Writing register [69] with 0x8
(11060149900) Reading register [69] = 0x0
(11060150000) Writing register [69] with 0x10
(11060224900) Reading register [69] = 0x0
(11060225000) Writing register [69] with 0x20
(11060299900) Reading register [69] = 0x0
(11060300000) Writing register [69] with 0x40
(11060374900) Reading register [69] = 0x0
(11060375000) Writing register [69] with 0x80
(11060449900) Reading register [70] = 0x43
(11060450000) Writing register [70] with 0x43
(11060524900) Reading register [70] = 0x43
(11060525000) Writing register [70] with 0x43
(11060599900) Reading register [70] = 0x43
(11060600000) Writing register [70] with 0x47
(11060674900) Reading register [70] = 0x43
(11060675000) Writing register [70] with 0x4b
(11060749900) Reading register [70] = 0x43
(11060750000) Writing register [70] with 0x53
(11060824900) Reading register [70] = 0x43
(11060825000) Writing register [70] with 0x63
(11060899900) Reading register [70] = 0x43
(11060900000) Writing register [70] with 0x43
(11060974900) Reading register [70] = 0x43
(11060975000) Writing register [70] with 0xc3
(11061049900) Reading register [71] = 0x2f
(11061050000) Writing register [71] with 0x2f
(11061124900) Reading register [71] = 0x2f
(11061125000) Writing register [71] with 0x2f
(11061199900) Reading register [71] = 0x2f
(11061200000) Writing register [71] with 0x2f
(11061274900) Reading register [71] = 0x2f
(11061275000) Writing register [71] with 0x2f
(11061349900) Reading register [71] = 0x2f
(11061350000) Writing register [71] with 0x3f
(11061424900) Reading register [71] = 0x2f
(11061425000) Writing register [71] with 0x2f
(11061499900) Reading register [71] = 0x2f
(11061500000) Writing register [71] with 0x6f
(11061574900) Reading register [71] = 0x2f
(11061575000) Writing register [71] with 0xaf
(11061649900) Reading register [72] = 0x0
(11061650000) Writing register [72] with 0x1
(11061724900) Reading register [72] = 0x0
(11061725000) Writing register [72] with 0x2
(11061799900) Reading register [72] = 0x0
(11061800000) Writing register [72] with 0x4
(11061874900) Reading register [72] = 0x0
(11061875000) Writing register [72] with 0x8
(11061949900) Reading register [72] = 0x0
(11061950000) Writing register [72] with 0x10
(11062024900) Reading register [72] = 0x0
(11062025000) Writing register [72] with 0x20
(11062099900) Reading register [72] = 0x0
(11062100000) Writing register [72] with 0x40
(11062174900) Reading register [72] = 0x0
(11062175000) Writing register [72] with 0x80
(11062249900) Reading register [73] = 0x0
(11062250000) Writing register [73] with 0x1
(11062324900) Reading register [73] = 0x0
(11062325000) Writing register [73] with 0x2
(11062399900) Reading register [73] = 0x0
(11062400000) Writing register [73] with 0x4
(11062474900) Reading register [73] = 0x0
(11062475000) Writing register [73] with 0x8
(11062549900) Reading register [73] = 0x0
(11062550000) Writing register [73] with 0x10
(11062624900) Reading register [73] = 0x0
(11062625000) Writing register [73] with 0x20
(11062699900) Reading register [73] = 0x0
(11062700000) Writing register [73] with 0x40
(11062774900) Reading register [73] = 0x0
(11062775000) Writing register [73] with 0x80
(11062849900) Reading register [74] = 0x0
(11062850000) Writing register [74] with 0x1
(11062924900) Reading register [74] = 0x0
(11062925000) Writing register [74] with 0x2
(11062999900) Reading register [74] = 0x0
(11063000000) Writing register [74] with 0x4
(11063074900) Reading register [74] = 0x0
(11063075000) Writing register [74] with 0x8
(11063149900) Reading register [74] = 0x0
(11063150000) Writing register [74] with 0x10
(11063224900) Reading register [74] = 0x0
(11063225000) Writing register [74] with 0x20
(11063299900) Reading register [74] = 0x0
(11063300000) Writing register [74] with 0x40
(11063374900) Reading register [74] = 0x0
(11063375000) Writing register [74] with 0x80
(11063449900) Reading register [75] = 0x1c
(11063450000) Writing register [75] with 0x1d
(11063524900) Reading register [75] = 0x1c
(11063525000) Writing register [75] with 0x1e
(11063599900) Reading register [75] = 0x1c
(11063600000) Writing register [75] with 0x1c
(11063674900) Reading register [75] = 0x1c
(11063675000) Writing register [75] with 0x1c
(11063749900) Reading register [75] = 0x1c
(11063750000) Writing register [75] with 0x1c
(11063824900) Reading register [75] = 0x1c
(11063825000) Writing register [75] with 0x3c
(11063899900) Reading register [75] = 0x1c
(11063900000) Writing register [75] with 0x5c
(11063974900) Reading register [75] = 0x1c
(11063975000) Writing register [75] with 0x9c
(11064049900) Reading register [76] = 0x0
(11064050000) Writing register [76] with 0x1
(11064124900) Reading register [76] = 0x0
(11064125000) Writing register [76] with 0x2
(11064199900) Reading register [76] = 0x0
(11064200000) Writing register [76] with 0x4
(11064274900) Reading register [76] = 0x0
(11064275000) Writing register [76] with 0x8
(11064349900) Reading register [76] = 0x0
(11064350000) Writing register [76] with 0x10
(11064424900) Reading register [76] = 0x0
(11064425000) Writing register [76] with 0x20
(11064499900) Reading register [76] = 0x0
(11064500000) Writing register [76] with 0x40
(11064574900) Reading register [76] = 0x0
(11064575000) Writing register [76] with 0x80
(11064649900) Reading register [77] = 0x56
(11064650000) Writing register [77] with 0x57
(11064724900) Reading register [77] = 0x56
(11064725000) Writing register [77] with 0x56
(11064799900) Reading register [77] = 0x56
(11064800000) Writing register [77] with 0x56
(11064874900) Reading register [77] = 0x56
(11064875000) Writing register [77] with 0x5e
(11064949900) Reading register [77] = 0x56
(11064950000) Writing register [77] with 0x56
(11065024900) Reading register [77] = 0x56
(11065025000) Writing register [77] with 0x76
(11065099900) Reading register [77] = 0x56
(11065100000) Writing register [77] with 0x56
(11065174900) Reading register [77] = 0x56
(11065175000) Writing register [77] with 0xd6
(11065249900) Reading register [78] = 0x81
(11065250000) Writing register [78] with 0x81
(11065324900) Reading register [78] = 0x81
(11065325000) Writing register [78] with 0x83
(11065399900) Reading register [78] = 0x81
(11065400000) Writing register [78] with 0x85
(11065474900) Reading register [78] = 0x81
(11065475000) Writing register [78] with 0x89
(11065549900) Reading register [78] = 0x81
(11065550000) Writing register [78] with 0x91
